Frequency (Hz), Gain (dB), Phase (deg)
2.364563897494718276e+03,-4.738398800213417417e+00,-1.140630668298367709e+02
2.402571271758180046e+03,-4.864793403472290834e+00,-1.144296478239342321e+02
2.441189566496208954e+03,-4.990839651243774711e+00,-1.148012099317996899e+02
2.480428601482823069e+03,-5.116528852197589572e+00,-1.162532268335608308e+02
2.520298354332486724e+03,-5.241852177040286165e+00,-1.155594421308171889e+02
2.560808963037200556e+03,-5.366800661156872820e+00,-1.159461924851279662e+02
2.601970728544363737e+03,-5.491365207616752286e+00,-1.155375332608653025e+02
2.643794117376078702e+03,-5.776976783625650036e+00,-1.167351555975163251e+02
2.686289764290554103e+03,-5.739305458986095232e+00,-1.173007083457262496e+02
2.729468474986285855e+03,-5.862662340943359141e+00,-1.185513227930434965e+02
2.773341228849709751e+03,-5.985597648165537521e+00,-1.179578077667908929e+02
2.817919181747011407e+03,-6.108101681141107520e+00,-1.183759530900000669e+02
2.863213668860817506e+03,-6.570415693879392727e+00,-1.196364990350482884e+02
2.909236207572480907e+03,-6.214488465094003544e+00,-1.192283298429780842e+02
2.955998500390693152e+03,-6.472927590395201491e+00,-1.196626213282467148e+02
3.003512437927173323e+03,-6.343929309159605623e+00,-1.201023525250651289e+02
3.051790101920186316e+03,-6.713806200291017490e+00,-1.205475497680800459e+02
3.100843768306661332e+03,-6.833513427048288236e+00,-1.209982377990470042e+02
3.150685910343686373e+03,-6.952718894938001881e+00,-1.206791312430386398e+02
3.201329201780185031e+03,-7.071412255564169413e+00,-1.219161768413546412e+02
3.252786520079564980e+03,-7.240247225730637837e+00,-1.223834687933182011e+02
3.305070949694173123e+03,-6.805794869669839819e+00,-1.236714786380934044e+02
3.358195785392377729e+03,-6.909058787970821847e+00,-1.233347861396700296e+02
3.412174535639143869e+03,-7.433109825016114947e+00,-1.238188411943839071e+02
3.467020926030917963e+03,-7.860967400005878680e+00,-1.243085102598171119e+02
3.522748902785754126e+03,-7.623158391980298099e+00,-1.248038030500538582e+02
3.579372636289524053e+03,-7.887051171051268739e+00,-1.253047271262809232e+02
3.636906524699132206e+03,-8.358916323321922803e+00,-1.258112878400101380e+02
3.695365197603645811e+03,-8.286437158681740911e+00,-1.263234882781227100e+02
3.754763519744274618e+03,-8.227886726671513884e+00,-1.268413292099510130e+02
3.815116594794145385e+03,-8.340259688623092416e+00,-1.273648090366140195e+02
3.876439769198827435e+03,-8.795190685310272372e+00,-1.278939237428262317e+02
3.938748636078596974e+03,-8.100132154585308442e+00,-1.284286668513994130e+02
4.002059039193415629e+03,-8.494762622379189665e+00,-1.289690293806568775e+02
4.066387076971651823e+03,-8.783289925373225060e+00,-1.295149998049781175e+02
4.131749106603549080e+03,-8.604130472233325833e+00,-1.300665640186887231e+02
4.198161748200499460e+03,-9.000792588898093527e+00,-1.306237053035063695e+02
4.265641889021164388e+03,-9.108508164241513327e+00,-1.292878938153563695e+02
4.334206687765534298e+03,-9.286636081034655987e+00,-1.326423953226806418e+02
4.403873578937998900e+03,-9.321823569149159994e+00,-1.323283846359214238e+02
4.474660277280558148e+03,-9.427406462688210809e+00,-1.329076138469109196e+02
4.546584782277288468e+03,-9.289038891813163445e+00,-1.334922964832264825e+02
4.619665382731207501e+03,-9.636382427059857037e+00,-1.339201326025673211e+02
4.693920661414711503e+03,-9.739760356371576222e+00,-1.357295637323711901e+02
4.769369499794763215e+03,-9.946671098168732073e+00,-1.376241829166048660e+02
4.846031082834027075e+03,-1.013097020504038248e+01,-1.358848633587869585e+02
4.923924903869181435e+03,-1.005211159610865046e+01,-1.364962658905615456e+02
5.003070769567638308e+03,-1.036973152141482934e+01,-1.371128839805960524e+02
5.083488804963937582e+03,-1.024527898729282072e+01,-1.377346685658355909e+02
5.165199458577100813e+03,-1.081360655728378717e+01,-1.383615679501930060e+02
5.248223507610229717e+03,-1.044207266097576792e+01,-1.389935278380467025e+02
5.332582063233691770e+03,-1.102204892365764266e+01,-1.396304913729480859e+02
5.418296575953218962e+03,-1.063571742657477159e+01,-1.402723991814859517e+02
5.505388841064293956e+03,-1.073135056980248692e+01,-1.404736976007391434e+02
5.593881004194211528e+03,-1.082618749417142112e+01,-1.415707978396277156e+02
5.683795566933217742e+03,-1.092022636761009835e+01,-1.422271578227785938e+02
5.775155392556164770e+03,-1.101346594952457281e+01,-1.428496102122903721e+02
5.867983711836134717e+03,-1.110590560807216320e+01,-1.435538546508861373e+02
5.962304128951507664e+03,-1.163213987774259017e+01,-1.442240470902082734e+02
6.058140627487977326e+03,-1.128838576991205400e+01,-1.448987024323987782e+02
6.155517576537049536e+03,-1.137842819811984896e+01,-1.455777433273847805e+02
6.254459736892554247e+03,-1.146767458165410858e+01,-1.462610905128600223e+02
6.354992267346769950e+03,-1.146966015869004885e+01,-1.469486629008868306e+02
6.457140731087743006e+03,-1.164379048247126036e+01,-1.476403776673214736e+02
6.560931102199438101e+03,-1.246810971806237589e+01,-1.483361503437056683e+02
6.666389772266372347e+03,-1.181676302068495943e+01,-1.490358949112526545e+02
6.773543557084406530e+03,-1.190208288286621041e+01,-1.497395238965366104e+02
6.882419703479406053e+03,-1.198663318299023217e+01,-1.504469484684832707e+02
6.993045896235505097e+03,-1.207042087329543278e+01,-1.518218157868869014e+02
7.105450265134731126e+03,-1.215979866857156289e+01,-1.518728228475506796e+02
7.219661392109780536e+03,-1.223573994810604404e+01,-1.525910890870621017e+02
7.335708318511774451e+03,-1.231728896079174262e+01,-1.528061960549251239e+02
7.453620552494822732e+03,-1.239811062283746423e+01,-1.540378133611270357e+02
7.573428076519295246e+03,-1.245576471830183252e+01,-1.547660823269446837e+02
7.695161354975695758e+03,-1.255761537820957585e+01,-1.572341306129179941e+02
7.818851341931077513e+03,-1.263632207406897123e+01,-1.562319560170675175e+02
7.944529488999964997e+03,-1.271434861595386678e+01,-1.569693678772597707e+02
8.072227753341838252e+03,-1.286562844465807665e+01,-1.577096337645811559e+02
8.201978605787071501e+03,-1.286841652439076711e+01,-1.568576010483981236e+02
8.333815039093586165e+03,-1.294448733338275304e+01,-1.591983377120032799e+02
8.467770576336159138e+03,-1.301993685362893416e+01,-1.599465802781340074e+02
8.603879279430597308e+03,-1.347447984459581782e+01,-1.619372275490809159e+02
8.742175757794930178e+03,-1.345635695795658293e+01,-1.614503570077144730e+02
8.882695177149811570e+03,-1.324272579753406376e+01,-1.622056952765174174e+02
9.025473268460380496e+03,-1.331586161171358640e+01,-1.629632029931213140e+02
9.170546337021856743e+03,-1.338846513950305450e+01,-1.637227824532396312e+02
9.317951271691161310e+03,-1.346055608924015701e+01,-1.635115594405211539e+02
9.467725554266942709e+03,-1.353215476256498562e+01,-1.646987508871291368e+02
9.619907269020357489e+03,-1.360328203380242940e+01,-1.660129772933013896e+02
9.774535112379056955e+03,-1.367395932825267835e+01,-1.665461856066758060e+02
9.931648402766832078e+03,-1.374420859943562334e+01,-1.675483514756267880e+02
1.009128709060141955e+04,-1.381405230533783879e+01,-1.669604063847830275e+02
1.025349176845294460e+04,-1.388351338371158761e+01,-1.690896887538828821e+02
1.041830368136587640e+04,-1.395261522647763286e+01,-1.698623544653394504e+02
1.058576473734645697e+04,-1.402138165328358355e+01,-1.706362247629747060e+02
1.075591751801929604e+04,-1.408983688427250058e+01,-1.714112049998093141e+02
1.092880528945459628e+04,-1.415800551211492575e+01,-1.713880265264823493e+02
1.110447201317009785e+04,-1.422591247336046649e+01,-1.714306214046017942e+02
1.128296235730916123e+04,-1.442514448917772896e+01,-1.712518806972581729e+02
1.146432170799921914e+04,-1.436104268544353602e+01,-1.745203444406611766e+02
1.164859618089221840e+04,-1.442831726252371993e+01,-1.752994664849434230e+02
1.183583263289090610e+04,-1.471390987658476845e+01,-1.760791374179193554e+02
1.202607867406348669e+04,-1.456241539715675515e+01,-1.768592646662043535e+02
1.221938267974979681e+04,-1.446755468043662418e+01,-1.781063273651751047e+02
1.241579380286208652e+04,-1.448408919562592168e+01,-1.798875272118721682e+02
1.261536198638350470e+04,-1.429150570113290186e+01,-1.801991741651025620e+02
1.281813797606749540e+04,-1.482954632394645955e+01,-1.799824911986508482e+02
1.302417333334131035e+04,-1.489626221698591735e+01,-1.807635167602660999e+02
1.323352044841693714e+04,-1.496300473529292674e+01,-1.815444458727822621e+02
1.344623255361276460e+04,-1.482779700054718042e+01,-1.802309839239325697e+02
1.366236373688938147e+04,-1.509667621313067798e+01,-1.831056465098845365e+02
1.388196895560293524e+04,-1.516365826107184489e+01,-1.838857336751089235e+02
1.410510405047957283e+04,-1.523077304679802069e+01,-1.847443550548006499e+02
1.433182575981449372e+04,-1.529804677588782624e+01,-1.854444196898035102e+02
1.456219173389923708e+04,-1.536550546139994822e+01,-1.862228331435977111e+02
1.479626054968087192e+04,-1.529324851489461068e+01,-1.858618762932733546e+02
1.503409172565680819e+04,-1.580498016354361823e+01,-1.877773355945867024e+02
1.527574573700903238e+04,-1.545159770591448556e+01,-1.885532375930843045e+02
1.552128403098160197e+04,-1.563770155444338172e+01,-1.893281149108910597e+02
1.577076904250530606e+04,-1.602831940282793965e+01,-1.893755675626181585e+02
1.602426421007349563e+04,-1.576265119603740850e+01,-1.908744178660058139e+02
1.628183399187306532e+04,-1.546754990728633850e+01,-1.914228162610481547e+02
1.654354388217475207e+04,-1.591486710642499247e+01,-1.924154856019371493e+02
1.680946042798686176e+04,-1.598511414035505140e+01,-1.931838175366399355e+02
1.707965124597670365e+04,-1.632059592021699146e+01,-1.939505534807229310e+02
1.735418503966399658e+04,-1.612691378198157111e+01,-1.949294796858292500e+02
1.763313161689065237e+04,-1.619850976348998017e+01,-1.934494790831142836e+02
1.791656190757136210e+04,-1.627059786462200464e+01,-1.962402192497212923e+02
1.820454798172948722e+04,-1.634319838412045556e+01,-1.969996036124924501e+02
1.849716306782287938e+04,-1.641633102726348170e+01,-1.977569067813063555e+02
1.879448157136422378e+04,-1.649001488638020874e+01,-1.985120310001350106e+02
1.909657909384074082e+04,-1.656426842254475673e+01,-1.992648783706418385e+02
1.940353245193793919e+04,-1.694728437232267737e+01,-2.000153509042379483e+02
1.971541969707239696e+04,-1.671455511275789263e+01,-2.007633505793321831e+02
2.003232013523851492e+04,-1.679062188517994514e+01,-2.015087794035881359e+02
2.035431434717424418e+04,-1.686732554361667269e+01,-2.022515394809688019e+02
2.068148420885099767e+04,-1.694468116208383890e+01,-2.029915330833186999e+02
2.101391291229288981e+04,-1.727262720336808499e+01,-2.037286627262047034e+02
2.135168498673059730e+04,-1.710140499418392324e+01,-2.044628312487087669e+02
2.169488632009529101e+04,-1.718079974884558681e+01,-2.051939418968421194e+02
2.204360418085800848e+04,-1.718681875078647536e+01,-2.059218984102274135e+02
2.239792724022009861e+04,-1.767427335715399295e+01,-2.066466051116753988e+02
2.275794559466033024e+04,-1.742325913426658701e+01,-2.073679669992667129e+02
2.312375078884442337e+04,-1.750553956393125077e+01,-2.085120634142225526e+02
2.349543583890283116e+04,-1.758856623806832431e+01,-2.088002802683251389e+02
2.387309525608266267e+04,-1.767234759066373329e+01,-2.095110458779343503e+02
2.425682507077980699e+04,-1.731492981136196008e+01,-2.102180953250525590e+02
2.464672285695731262e+04,-1.784220434090464380e+01,-2.109213384241228937e+02
2.504288775695629010e+04,-1.792829289191655562e+01,-2.116206862466580105e+02
2.544542050670560275e+04,-1.837040660705525497e+01,-2.124031213581938573e+02
2.585442346133676620e+04,-1.810281773388973647e+01,-2.130073472197577189e+02
2.627000062121059455e+04,-1.819126281277706880e+01,-2.134141095812215951e+02
2.669225765836217761e+04,-1.828050100567797642e+01,-2.135122583353491734e+02
2.712130194337092689e+04,-1.837053494748914773e+01,-2.150559839493816696e+02
2.755724257266252607e+04,-1.846136658990695878e+01,-2.157301751938024381e+02
2.800019039624973811e+04,-1.855299721441481609e+01,-2.163998919169934254e+02
2.845025804591909036e+04,-1.864542744624641557e+01,-2.170650586446469106e+02
2.890755996387062987e+04,-1.873865726926632647e+01,-2.177256019751722818e+02
2.937221243181805039e+04,-1.883268604170760341e+01,-2.186483128688749105e+02
2.984433360055652520e+04,-1.892751251270428270e+01,-2.190325356551084326e+02
3.032404352000584186e+04,-1.902313483955452966e+01,-2.196787902301460065e+02
3.081146416973642408e+04,-1.911955060564999087e+01,-2.199066560956774765e+02
3.130671948998603330e+04,-1.921675683900510023e+01,-2.209565529570190847e+02
3.180993541317500058e+04,-1.931475003132030110e+01,-2.215879396149979925e+02
3.232123989592805447e+04,-1.941352615751291921e+01,-2.222142529638555573e+02
3.284076295161084272e+04,-1.951308069564899483e+01,-2.205637609137120592e+02
3.336863668338944990e+04,-1.961340864721097432e+01,-2.234514445584845532e+02
3.390499531782127451e+04,-1.971450455763599052e+01,-2.240622217406612151e+02
3.444997523898587679e+04,-2.006900465423122526e+01,-2.246677235482153776e+02
3.500371502316442638e+04,-1.991897628121300556e+01,-2.252679061032450534e+02
3.556635547407655395e+04,-2.002365280111581214e+01,-2.258627282266068903e+02
3.613803965868360683e+04,-2.012644390042007103e+01,-2.255407631484221156e+02
3.671891294356741128e+04,-2.023128328370856366e+01,-2.270361400259778577e+02
3.730912303189375234e+04,-2.033684949003810516e+01,-2.276146609253474651e+02
3.790882000097000855e+04,-2.044313445735139112e+01,-2.281876838397744791e+02
3.851815634040639998e+04,-2.055012983429787710e+01,-2.287551811720055071e+02
3.913728699089110160e+04,-2.065782700055406451e+01,-2.293171280244749823e+02
3.976636938358733460e+04,-2.076621708686563750e+01,-2.298735021829085667e+02
4.040556348016583070e+04,-2.087529099477060868e+01,-2.302659475844629924e+02
4.105503181347820646e+04,-2.098503941596484879e+01,-2.309694568485273578e+02
4.171493952888680360e+04,-2.109545285127595093e+01,-2.302618873764678256e+02
4.238545442625612486e+04,-2.120652162921248873e+01,-2.320429202307178400e+02
4.306674700262195984e+04,-2.131823592406055923e+01,-2.325711899422803697e+02
4.375899049554364319e+04,-2.143058577350079474e+01,-2.330938085830307784e+02
4.446236092715588893e+04,-2.154356109572354683e+01,-2.336107719227528605e+02
4.517703714892590506e+04,-2.165715170602155126e+01,-2.341220781436615539e+02
4.590320088713277073e+04,-2.142094460952814927e+01,-2.346277277921663824e+02
4.664103678907493304e+04,-2.188613763329091455e+01,-2.351277237281599639e+02
4.739073247002340941e+04,-2.200151220805493324e+01,-2.356220710720531031e+02
4.815247856092664733e+04,-2.207331891384686884e+01,-2.361107771497712235e+02
4.892646875688529690e+04,-2.185267083826851220e+01,-2.365938514359293947e+02
4.971289986640299321e+04,-2.235103703637498995e+01,-2.370713054953932613e+02
5.051197186143197177e+04,-2.246864407729481172e+01,-2.375431529234368497e+02
5.132388792821989773e+04,-2.258678303183124569e+01,-2.380094092846926799e+02
5.214885451897721941e+04,-2.270544344320305186e+01,-2.384700920510952642e+02
5.298708140437174006e+04,-2.271940792339787407e+01,-2.389252205390018560e+02
5.383878172687030747e+04,-2.294428697844659837e+01,-2.393748158456759541e+02
5.470417205493450456e+04,-2.354827273163787282e+01,-2.398189007853056296e+02
5.558347243809082283e+04,-2.316931876429750403e+01,-2.402574998247261249e+02
5.647690646288314019e+04,-2.412836490047812532e+01,-2.406906390190026173e+02
5.738470130972639890e+04,-2.342777617314004601e+01,-2.411183459470274784e+02
5.830708781067337986e+04,-2.354979788233160320e+01,-2.415406496472717492e+02
5.924430050811021647e+04,-2.367225932848502623e+01,-2.416270572915912851e+02
6.019657771439525823e+04,-2.379515066310132454e+01,-2.406398237227653851e+02
6.116416157245662907e+04,-2.391846214198392317e+01,-2.427754523196204275e+02
6.214729811736380361e+04,-2.404218413072840121e+01,-2.431764604560367786e+02
6.314623733888882998e+04,-2.397906091970541809e+01,-2.435722302291314065e+02
6.416123324507321377e+04,-2.429082167886036814e+01,-2.439627981102138108e+02
6.519254392681646277e+04,-2.391655304397026782e+01,-2.443482015950186792e+02
6.624043162350291095e+04,-2.454098860807376070e+01,-2.433646681582748101e+02
6.730516278968335246e+04,-2.493296684268937469e+01,-2.451036701287289645e+02
6.838700816282848245e+04,-2.479261225223315535e+01,-2.456829419384131086e+02
6.948624283217149787e+04,-2.476046567150298472e+01,-2.458389540749184903e+02
7.060314630865707295e+04,-2.504562207931638795e+01,-2.461991298101095822e+02
7.173800259601483413e+04,-2.517262537323310312e+01,-2.465543844179438224e+02
7.289110026297521836e+04,-2.529994976878978719e+01,-2.468641385288198080e+02
7.406273251664603595e+04,-2.542758708064575046e+01,-2.472503031671492408e+02
7.525319727706856793e+04,-2.535862809422507524e+01,-2.475910551835143565e+02
7.646279725297197001e+04,-2.568376843333516035e+01,-2.479270617260328606e+02
7.769184001874539535e+04,-2.581229682684146098e+01,-2.482583679347659995e+02
7.894063809264732117e+04,-2.594110684268355271e+01,-2.485850193488872151e+02
8.020950901627200074e+04,-2.607019102097599728e+01,-2.489070618633827792e+02
8.149877543529325339e+04,-2.626514998186981487e+01,-2.492245416871755026e+02
8.280876518150603806e+04,-2.632915275163705360e+01,-2.495375053026717183e+02
8.413981135618680855e+04,-2.645901610906069834e+01,-2.498459994267252284e+02
8.549225241479380929e+04,-2.658912523765883407e+01,-2.501500709730102585e+02
8.686643225302871724e+04,-2.671947339823876177e+01,-2.504497670157927303e+02
8.826270029428170528e+04,-2.685005399310249175e+01,-2.507451347550848197e+02
8.968141157848204602e+04,-2.698086056481157868e+01,-2.510362214831683048e+02
9.112292685237686965e+04,-2.729027256799898282e+01,-2.513230745524661529e+02
9.258761266126102419e+04,-2.724312650200084818e+01,-2.516057413447443309e+02
9.407584144218143774e+04,-2.717753833535365260e+01,-2.518842692416192790e+02
9.558799161863951304e+04,-2.750622230071908803e+01,-2.521587055963495914e+02
9.712444769681592879e+04,-2.763806670220873229e+01,-2.524290977068851305e+02
9.868560036334188771e+04,-2.777010119711346192e+01,-2.526954927901485348e+02
1.002718465846421168e+05,-2.790232026557326606e+01,-2.529579379575212386e+02
1.018835897078745911e+05,-2.803471851424478700e+01,-2.541288113797652954e+02
1.035212395634927525e+05,-2.816729067423094079e+01,-2.539689126926377298e+02
1.051852125694562856e+05,-2.830003159895788656e+01,-2.537220430129211195e+02
1.068759318371169356e+05,-2.843293626200477320e+01,-2.533633930432980037e+02
1.085938272788063477e+05,-2.856599975489297094e+01,-2.542125537213966311e+02
1.103393357171531679e+05,-2.851397264119765751e+01,-2.544522800238302978e+02
1.121129009961574193e+05,-2.883258417248464411e+01,-2.546883814154988386e+02
1.139149740940500487e+05,-2.896609584958504513e+01,-2.544123916050940011e+02
1.157460132379667484e+05,-2.882841669536914253e+01,-2.551498912682411344e+02
1.176064840204649518e+05,-2.923353584085027990e+01,-2.553753899242128398e+02
1.194968595179135737e+05,-2.936745555317389744e+01,-2.555974440319294274e+02
1.214176204107858939e+05,-2.931107649324038888e+01,-2.558160979230012799e+02
1.233692551058859390e+05,-2.963567367332419167e+01,-2.558582176405278972e+02
1.253522598605393723e+05,-2.976996408277749140e+01,-2.562433807312727367e+02
1.273671389087808057e+05,-2.990437021893470160e+01,-2.564520966298377971e+02
1.294144045895692543e+05,-3.003888831812386684e+01,-2.566575862552542162e+02
1.314945774770645949e+05,-3.010529723878173058e+01,-2.588528736704168978e+02
1.336081865129978978e+05,-3.030824579842362709e+01,-2.570590566803152228e+02
1.357557691411697306e+05,-3.007558953948496594e+01,-2.572551215338046404e+02
1.379378714441099437e+05,-3.083047497741067389e+01,-2.562291281492629196e+02
1.401550482819345198e+05,-3.071303269824373672e+01,-2.576381177570157774e+02
1.424078634334341041e+05,-3.084814841371409955e+01,-2.581001787308645703e+02
1.446968897394303640e+05,-3.098335213549947298e+01,-2.580092076928304436e+02
