Frequency (Hz), Gain (dB), Phase (deg)
9.068090865594955403e+02,6.560541051671377488e+01,-2.584932526773585426e+00
9.229475508214377442e+02,6.633372386803958420e+01,-2.630873755657154867e+00
9.393732310283834295e+02,6.633339976509782332e+01,-2.677629194384342881e+00
9.560912387571042927e+02,6.633306404889765417e+01,-1.376188001849463438e+00
9.731067765550101285e+02,6.633271630425929288e+01,-1.223922847064002228e+00
9.904251395591466007e+02,6.611185762293014534e+01,-2.822925055997900223e+00
1.008051717144014788e+03,6.633198299455864344e+01,-2.873082858887424873e+00
1.025991994598712381e+03,6.633159652316672350e+01,-2.924128885923118482e+00
1.044251554833922683e+03,6.633119620958139251e+01,-2.976078704708411848e+00
1.062836080119288908e+03,6.633078155936389919e+01,-3.028948146930638075e+00
1.081751353851697104e+03,6.633035206051236798e+01,-3.082753312362925602e+00
1.101003262355039851e+03,6.632990718284506215e+01,-3.137510572900044092e+00
1.120597796712005447e+03,6.632944637736257221e+01,-1.641934384226969357e+00
1.140541054628467919e+03,6.632896907558807698e+01,-3.249948251917539110e+00
1.160839242331057449e+03,6.597218223912423696e+01,-3.307662811565043270e+00
1.181498676498505574e+03,6.632796260775255348e+01,-3.366397756937204111e+00
1.202525786227353819e+03,6.632743220109426829e+01,-3.426170882159394360e+00
1.223927115032654456e+03,6.632688281546580811e+01,-3.487000278320591562e+00
1.245709322884274570e+03,6.632631377429420638e+01,-1.687018572466934652e+00
1.267879188279437585e+03,6.632572437707194979e+01,-3.611901758018511099e+00
1.290443610352159794e+03,6.582326666588755870e+01,-3.676011546692193654e+00
1.313409611020210605e+03,6.602683200415596332e+01,-5.043243753892221903e+00
1.336784337170300205e+03,6.632382666731191989e+01,-3.807645832959883681e+00
1.360575062882146540e+03,6.632314833236117124e+01,-4.674652226557796553e+00
1.384789191692126678e+03,6.632244574963930006e+01,-4.067442858669447325e+00
1.409434258897219024e+03,6.631231041710381646e+01,-4.013933493786273843e+00
1.434517933899936907e+03,6.632096435999066841e+01,-4.085134531589790896e+00
1.460048022595006842e+03,6.622986139413220030e+01,-4.157590021479389719e+00
1.486032469798517468e+03,6.631937522638143889e+01,-4.231321602908038493e+00
1.512479361720298130e+03,6.631853784172585620e+01,-4.306351263604805801e+00
1.539396928480307452e+03,6.631767055623335239e+01,-4.382701343811297612e+00
1.566793546669788839e+03,6.631677230851666138e+01,-4.460394540490473680e+00
1.594677741958025081e+03,6.631584199996984808e+01,-5.719212922363232643e+00
1.623058191745474232e+03,6.631487849349635155e+01,-4.051911412527260836e+00
1.651943727864125322e+03,6.631388061219608687e+01,-4.701765237218502591e+00
1.681343339325920624e+03,6.631284713801031216e+01,-4.785065149116118022e+00
1.711266175120073967e+03,6.631177681032305316e+01,-4.869827157747266710e+00
1.741721547060189550e+03,6.631066832451814719e+01,-4.902213641333026395e+00
1.772718932682043032e+03,6.630952033049035776e+01,-5.043837543541007662e+00
1.804267978192935061e+03,6.630833143110973538e+01,-5.133136925820483754e+00
1.836378501473540609e+03,6.603861214285684866e+01,-5.297930063175532389e+00
1.869060495133167706e+03,6.629229424259861503e+01,-5.316454518487697456e+00
1.902324129619405994e+03,6.630450459056990553e+01,-5.410526098139151863e+00
1.936179756383109407e+03,6.630313710149869166e+01,-4.781627438266301766e+00
1.970637911099708163e+03,6.630172095885954775e+01,-6.040001253754722299e+00
2.005709316947848265e+03,6.630025444833751180e+01,-5.702720639322159002e+00
2.041404887946390090e+03,6.629873579642328707e+01,-5.803539094714617264e+00
2.077735732350776743e+03,6.629716316845681945e+01,-5.906115555152874563e+00
2.114713156109866304e+03,6.629553466661255356e+01,-6.010479364940433555e+00
2.152348666384275930e+03,6.629384832782501746e+01,-6.116660287551105135e+00
2.190653975127342164e+03,6.633357112601576944e+01,-6.224688507715438135e+00
2.229641002729822048e+03,6.629029394808591746e+01,-6.334594633272763176e+00
2.269321881729434153e+03,6.628842163527600917e+01,-6.446409696771584485e+00
2.309708960586446665e+03,6.628648293722061169e+01,-6.560165156800550790e+00
2.350814807526442564e+03,6.628447553136774673e+01,-6.675892899030989369e+00
2.392652214451478812e+03,6.628239701615939339e+01,-4.602555284426641968e+00
2.435234200920850526e+03,6.601696944124076083e+01,-7.587231927778647744e+00
2.478574018202712068e+03,6.627801664119226643e+01,-7.035235094984060744e+00
2.522685153397781050e+03,6.627570956021240534e+01,-8.177458726611531503e+00
2.567581333636454929e+03,6.627332092203521086e+01,-7.285261801615136257e+00
2.613276530350612575e+03,6.578992206649735408e+01,-7.413516802028638608e+00
2.659784963621440966e+03,6.681827797253569656e+01,-7.543979260098255146e+00
2.707121106604653050e+03,6.626563682666618149e+01,-7.257788891886353788e+00
2.755299690034432388e+03,6.626289263409850605e+01,-7.811668162259151060e+00
2.804335706807565657e+03,6.626005172299042556e+01,-8.434905331866843881e+00
2.854244416649141385e+03,6.625711075114442394e+01,-8.088615914092882164e+00
2.905041350861285991e+03,6.640809901662362336e+01,-8.230653482970980761e+00
2.956742317156425997e+03,6.625091469951495071e+01,-9.128145040245927433e+00
3.009363404576540233e+03,6.624765236834747384e+01,-8.522042806417482907e+00
3.062920988499987743e+03,6.624427546679504530e+01,-7.758405825224637731e+00
3.117431735737429335e+03,6.624078006503471272e+01,-8.823438061889843809e+00
3.172912609718436670e+03,6.623716210513872227e+01,-8.977984489742830476e+00
3.229380875770430066e+03,6.666968295426275404e+01,-9.135149039332851828e+00
3.286854106491526636e+03,6.622954161643647808e+01,-8.273611352963605725e+00
3.345350187219044983e+03,6.622553029759613707e+01,-9.275140615254080956e+00
3.404887321595316280e+03,6.622137883279660286e+01,-9.622749583386967842e+00
3.465484037232547053e+03,6.644704988358768105e+01,-9.790786484827490810e+00
3.527159191478522189e+03,6.621263629248636562e+01,-9.961643097599759855e+00
3.589931977284878940e+03,6.620803524805596396e+01,-1.013536068809953683e+01
3.653821929179857307e+03,6.620327411154809738e+01,-1.031198080531399697e+01
3.718848929347329431e+03,6.619834749726985024e+01,-1.231189269847309298e+01
3.785033213814016563e+03,6.642346882455508705e+01,-1.067409612755655246e+01
3.852395378746838105e+03,6.618797544758055551e+01,-1.085967568729666155e+01
3.920956386862296768e+03,6.618251838269756604e+01,-1.104832644346818959e+01
3.990737573949970738e+03,6.617687257230907960e+01,-9.599027059231085346e+00
4.061760655512085123e+03,6.617103174627276019e+01,-1.143501245411840550e+01
4.134047733521244481e+03,6.648435591133748801e+01,-1.163313354582068548e+01
4.207621303298457860e+03,6.623011319378862538e+01,-1.183449745709651602e+01
4.282504260513524969e+03,6.627419603367518164e+01,-1.203914737104599908e+01
4.358719908310055871e+03,6.613405724554937137e+01,-1.224712652471269614e+01
4.436291964557270148e+03,6.613866936028020405e+01,-1.221009855532959598e+01
4.515244569230852903e+03,6.613151580070898206e+01,-1.267324557848023758e+01
4.595602291925202735e+03,6.612411775634534195e+01,-1.289147193013307025e+01
4.677390139499295401e+03,6.611646730918538140e+01,-1.311320035246481197e+01
4.760633563858737944e+03,6.594782569499929537e+01,-1.333847384344319842e+01
4.845358469876203344e+03,6.610037639938215648e+01,-1.339027425819547013e+01
4.931591223452896884e+03,6.609191895262826222e+01,-1.379982716542406251e+01
5.019358659723491655e+03,6.591251186365821013e+01,-1.403599200317184525e+01
5.108688091407013417e+03,6.607413582892405657e+01,-1.279989708258681169e+01
5.199607317306468758e+03,6.606479172161019164e+01,-1.451950837803121885e+01
5.292144630959620372e+03,6.605513321463247678e+01,-1.476694297659235922e+01
5.386328829443793438e+03,6.604515046346969598e+01,-1.501821650235457817e+01
5.482189222337357933e+03,6.603483336528616121e+01,-1.527336932058446095e+01
5.579755640840692649e+03,6.602417155555150430e+01,-1.553244122662202820e+01
5.679058447059507671e+03,6.602518455871192771e+01,-1.579547138450664612e+01
5.780128543453317434e+03,6.600177101601344987e+01,-1.606249826316275886e+01
5.882997382452134843e+03,6.599001022126317650e+01,-1.633355957012817328e+01
5.987696976244277721e+03,6.597786057994650832e+01,-1.582004452903477798e+01
6.094259906738370773e+03,6.596531037633069161e+01,-1.688793207728971879e+01
6.202719335702674471e+03,6.595234761781682664e+01,-1.717131425460714311e+01
6.313109015084794009e+03,6.593896003348802992e+01,-1.745887266466030141e+01
6.425463297515119848e+03,6.571613758607205114e+01,-1.870219707520129759e+01
6.539817146997157579e+03,6.591085990608867462e+01,-1.804664825296591246e+01
6.656206149788121365e+03,6.589612142198521383e+01,-1.834692735616297909e+01
6.774666525473194270e+03,6.588090622999924051e+01,-1.865150637303750258e+01
6.895235138236816056e+03,6.568814768974863227e+01,-1.928425228502481303e+01
7.017949508334630082e+03,6.584899076405271501e+01,-1.927367246363785114e+01
7.142847823769565366e+03,6.583226231753275215e+01,-1.943910025204600700e+01
7.269968952175711820e+03,6.537951888487576468e+01,-1.991334702703337811e+01
7.399352452913735760e+03,6.579719150898212376e+01,-2.023980509466077038e+01
7.531038589381478232e+03,6.577881934149947085e+01,-2.057070265368244222e+01
7.665068341543722454e+03,6.578116773942498696e+01,-2.090605640950293065e+01
7.801483418684914795e+03,6.574032498955428139e+01,-2.124588093120986443e+01
7.940326272388844700e+03,6.572017143944995610e+01,-2.159018855005648874e+01
8.081640109749361727e+03,6.569939231625137666e+01,-2.193898925701101277e+01
8.225468906816131494e+03,6.567797132798739312e+01,-2.187010205519981554e+01
8.371857422279756065e+03,6.565589195304913517e+01,-2.265009757833702508e+01
8.520851211400407919e+03,6.516708893518639911e+01,-2.286515638856207744e+01
8.672496640184366697e+03,6.560969086412160323e+01,-2.337923508850007792e+01
8.826840899812874341e+03,6.558553504526166478e+01,-2.375056195268552628e+01
8.983932021327716939e+03,6.556065265276866683e+01,-2.412638691282386816e+01
9.143818890578229912e+03,6.529847856547243623e+01,-2.450670068477953834e+01
9.306551263434295834e+03,6.550863792626475401e+01,-2.489149082304115268e+01
9.472179781270066087e+03,6.548147009390170581e+01,-2.643889652530096868e+01
9.640755986723317619e+03,6.545350472174403933e+01,-2.492061317515229746e+01
9.812332339735106871e+03,6.572085674489466101e+01,-2.607254551844560453e+01
9.986962233875150559e+03,6.539510899501554775e+01,-2.647505006042118580e+01
1.016470001295747898e+04,6.536464223762108361e+01,-2.688191797958067752e+01
1.034560098795196245e+04,6.533330517334063359e+01,-2.691625739566672948e+01
1.052972145419679509e+04,6.530107946793705764e+01,-2.770860665872733364e+01
1.071711870891718172e+04,6.526794677218589413e+01,-2.812834924044845408e+01
1.090785106905602697e+04,6.471577013962281910e+01,-2.971956151613255770e+01
1.110197788942177067e+04,6.519888707479152856e+01,-2.898040612002127503e+01
1.129955958115919566e+04,6.516292350842562087e+01,-2.995794693385647278e+01
1.150065763054918898e+04,6.512597987208026495e+01,-2.982225707430038497e+01
1.170533461814272050e+04,6.508803809961295883e+01,-2.954565115499584849e+01
1.191365423823575111e+04,6.504908025899474922e+01,-3.073329446610325988e+01
1.212568131869032914e+04,6.500908857988277134e+01,-3.118131486139477460e+01
1.234148184110881812e+04,6.527384311576606990e+01,-3.163311342199125775e+01
1.256112296136692203e+04,6.492593360299082406e+01,-3.208861222033355887e+01
1.278467303051212002e+04,6.488273582945799944e+01,-3.254772912839442967e+01
1.301220161603428096e+04,6.483843532479423288e+01,-3.233841931821573468e+01
1.324377952351457861e+04,6.479301556002387485e+01,-3.347646785345725107e+01
1.347947881865970521e+04,6.453884531821165638e+01,-3.394590459004668048e+01
1.371937284972849011e+04,6.469875385256656841e+01,-3.441858935654840224e+01
1.396353627035723002e+04,6.464988066105749454e+01,-3.508298220234999576e+01
1.421204506279170164e+04,6.459982577226485034e+01,-3.537328818839156952e+01
1.446497656153216485e+04,6.454857464752402052e+01,-3.585508504946628250e+01
1.472240947739960939e+04,6.449611323614502112e+01,-3.633969570329714571e+01
1.498442392203003146e+04,6.454702666524373456e+01,-3.682700214470045808e+01
1.525110143280461307e+04,6.438750596529828840e+01,-3.731688280180673445e+01
1.552252499822387108e+04,6.407911849238367097e+01,-3.780921266189063346e+01
1.579877908373310311e+04,6.424001026075256959e+01,-3.830386340840039594e+01
1.607994965800748469e+04,6.421519789309843418e+01,-3.880070356895292605e+01
1.636612421970508876e+04,6.415521062403189489e+01,-3.929959867399704621e+01
1.665739182469602383e+04,6.409393074489418041e+01,-3.980041142578339475e+01
1.695384311377604899e+04,6.377846643408671667e+01,-4.160497625209254835e+01
1.725557034087334978e+04,6.396745724746597261e+01,-4.080722762010866234e+01
1.756266740175764789e+04,6.390224749638977642e+01,-4.131294398227780817e+01
1.787522986325991951e+04,6.383571290795633502e+01,-4.182000423290981672e+01
1.819335499301210803e+04,6.376784732074494855e+01,-4.232825979550693063e+01
1.851714178971654110e+04,6.355028164908023314e+01,-4.283756046773095960e+01
1.884669101395342659e+04,6.362810247039946887e+01,-4.476060996130217973e+01
1.918210521953727948e+04,6.355621488791788209e+01,-4.385868956372549832e+01
1.952348878543076717e+04,6.348297968841094985e+01,-4.437021151332213265e+01
1.987094794822711629e+04,6.340839477518834855e+01,-4.694958278990941380e+01
2.022459083521020511e+04,6.333245888814802527e+01,-4.539439847471319212e+01
2.058452749800301899e+04,6.325517160690745300e+01,-4.492869204107760339e+01
2.095086994681533906e+04,6.317653335184917296e+01,-4.641907641240442928e+01
2.132373218530054510e+04,6.362392075877164643e+01,-4.693121222561682515e+01
2.170323024603275917e+04,6.301520979727590088e+01,-4.744300681844811862e+01
2.208948222661582258e+04,6.293252952252939281e+01,-4.795430675498743511e+01
2.248260832643422691e+04,6.284850831105958946e+01,-4.912263416820876927e+01
2.288273088405884118e+04,6.276315072999008748e+01,-4.897481419788766743e+01
2.328997441531758159e+04,6.321036415882957016e+01,-4.992259617112392789e+01
2.370446565204436411e+04,6.258844873293794819e+01,-4.999153146735227438e+01
2.412633358151716675e+04,6.249911741546635113e+01,-5.049810006652973016e+01
2.455570948659797796e+04,6.240847589380437199e+01,-5.100328267254543846e+01
2.499272698658756781e+04,6.231653260466119093e+01,-5.216280647719693775e+01
2.543752207880688366e+04,6.260603562794058519e+01,-5.200892603791361068e+01
2.589023318091848705e+04,6.214712066517335387e+01,-5.250911139951771389e+01
2.635100117400168892e+04,6.208904429248975276e+01,-5.398312536986979637e+01
2.681996944639349385e+04,6.193593527280400934e+01,-5.350354250714033810e+01
2.729728393831067297e+04,6.152811820741467841e+01,-5.399753078277688445e+01
2.778309318726506899e+04,6.173809620708895807e+01,-5.395752469721414002e+01
2.827754837428799146e+04,6.163733445018708323e+01,-5.614634883934267862e+01
2.878080337097672964e+04,6.153536240664701751e+01,-5.546511264671129737e+01
2.929301478737831349e+04,6.143219412715876615e+01,-5.768181315754758032e+01
2.981434202072602056e+04,6.132784415038694448e+01,-5.643035888094147623e+01
3.034494730504268591e+04,6.122232747331777603e+01,-5.690871278932087307e+01
3.088499576162681478e+04,6.111565952128246693e+01,-5.738408461977844865e+01
3.143465545043781822e+04,6.100785611777192941e+01,-5.830557786811134235e+01
3.199409742239477055e+04,6.089893345415481463e+01,-5.732263726524882230e+01
3.256349577260700971e+04,6.104023687770648365e+01,-5.879136013340671241e+01
3.314302769455099769e+04,6.067779676995490945e+01,-5.887845390822815261e+01
3.373287353521234763e+04,6.056561669973690698e+01,-5.971296993449052337e+01
3.433321685120861366e+04,6.045238521056799641e+01,-6.118695880658115271e+01
3.494424446591079322e+04,6.033811988290531758e+01,-5.948099345423533890e+01
3.556614652758211741e+04,6.022283848709173526e+01,-5.917661458961536169e+01
3.619911656855088950e+04,6.010655895515618852e+01,-6.151365017288554782e+01
3.684335156543646735e+04,5.999896777416536509e+01,-6.168925629836795110e+01
3.749905200044740923e+04,5.972980698216325379e+01,-6.239168127124087704e+01
3.816642192377050378e+04,5.975191271407378935e+01,-6.282492561298129630e+01
3.884566901706989302e+04,5.963182224154405731e+01,-6.525151314084234855e+01
3.953700465811615140e+04,5.951082477866674481e+01,-6.367964165819375921e+01
4.024064398656629783e+04,5.954534176432395043e+01,-6.410103346565674087e+01
4.095680597091378149e+04,5.926618226377986787e+01,-6.451840116140186865e+01
4.168571347662996413e+04,5.934039689541190654e+01,-6.493171463624308615e+01
4.242759333551915915e+04,5.901813165394656835e+01,-6.534094758363184496e+01
4.318267641630666913e+04,5.889287385782335349e+01,-6.574607741849595755e+01
4.395119769648453075e+04,5.849178286381058456e+01,-6.614708519204845061e+01
4.473339633543441596e+04,5.866073679313886657e+01,-6.654395550303019036e+01
4.552951574885330774e+04,5.851238691184764207e+01,-6.752517374886402024e+01
4.633980368450274545e+04,5.838404613605974447e+01,-6.850860099729544572e+01
4.716451229930626141e+04,5.858301966370517277e+01,-6.871731377936571050e+01
4.800389823781968153e+04,5.790990329235658862e+01,-6.808987304339839852e+01
4.885822271209718747e+04,5.799473353900452821e+01,-6.846594261731507913e+01
4.972775158297867165e+04,5.786358974566191193e+01,-6.883785151066652475e+01
5.061275544282479677e+04,5.773178756564499281e+01,-6.920560646157561280e+01
5.151350969972295570e+04,5.763321846439185236e+01,-6.956921696841885705e+01
5.243029466319354106e+04,5.732391402076948594e+01,-6.992869518745256130e+01
5.336339563141975668e+04,5.733259476519633324e+01,-7.028405583064787265e+01
5.431310298003155185e+04,5.719832191776951902e+01,-7.063531606400943019e+01
5.527971225246848917e+04,5.749173433192996896e+01,-7.098249540662872903e+01
5.626352425195083924e+04,5.692805706193023241e+01,-7.132561563070721888e+01
5.726484513508845703e+04,5.679209538896012788e+01,-7.166470066276299633e+01
5.828398650715465192e+04,5.682543262274111129e+01,-7.199977648621626258e+01
5.932126551905553788e+04,5.670846171940276292e+01,-7.233087104553113988e+01
6.037700496602644853e+04,5.614554445565540419e+01,-7.265801415207396019e+01
6.145153338808294211e+04,5.599436516593436863e+01,-7.298123739182956626e+01
6.254518517226156837e+04,5.610457713611157970e+01,-7.330057403510318181e+01
6.365830065667816234e+04,5.596562913477718837e+01,-7.361605894831735952e+01
6.479122623643999395e+04,5.582623092694916522e+01,-7.392772850800095341e+01
6.594431447144155391e+04,5.568639534299706639e+01,-7.423562051705116005e+01
6.711792419607871852e+04,5.554613493323003581e+01,-7.453977412333721020e+01
6.831242063091680757e+04,5.540546196856496408e+01,-7.484022974070235534e+01
6.952817549634464376e+04,5.526438844160073671e+01,-7.449358223033767956e+01
7.076556712825140858e+04,5.512292606807012874e+01,-7.543021453704982093e+01
7.202498059576356900e+04,5.498108628864182634e+01,-7.571983019698146222e+01
7.330680782107498089e+04,5.489169318001709286e+01,-7.600592068923829459e+01
7.461144770141206391e+04,5.469631891250014633e+01,-7.628853165898763677e+01
7.593930623316700803e+04,5.455341284240279265e+01,-7.656770959548939004e+01
7.729079663824266754e+04,5.441017242528468500e+01,-7.684350177056160192e+01
7.866633949264431430e+04,5.426660776398151143e+01,-7.711595617953291537e+01
8.006636285735998536e+04,5.362427876651678105e+01,-7.728180186180770761e+01
8.149130241157159617e+04,5.397854483215536447e+01,-7.667774521804385301e+01
8.294160158823525126e+04,5.383406549015690246e+01,-7.665531410400353707e+01
8.441771171207468433e+04,5.368929976862989406e+01,-7.983625499783586577e+01
8.592009214003126544e+04,5.354425651604908865e+01,-7.768191073133809255e+01
8.744921040421357611e+04,5.338440237093440288e+01,-7.868335469435942287e+01
8.900554235739029536e+04,5.325337162075041419e+01,-7.893383810861590177e+01
9.058957232107240998e+04,5.273532017224489010e+01,-7.730930472873903625e+01
