Frequency (Hz), Gain (dB), Phase (deg)
4.421052861129750454e+03,-1.208322278302703978e+01,-1.044220051347767679e+02
4.479702288332547141e+03,-1.220524769128925868e+01,-1.047559919812112383e+02
4.539129755386769830e+03,-1.232746073131025355e+01,-1.047891761943538853e+02
4.599345583723320487e+03,-1.244986623893314004e+01,-1.045735796543176974e+02
4.660360231696598930e+03,-1.239277105291235515e+01,-1.051647564055050594e+02
4.722184296400921994e+03,-1.269527241326920830e+01,-1.053420296546271828e+02
4.784828515511024307e+03,-1.281828216660332487e+01,-1.052257079476907364e+02
4.848303769147014464e+03,-1.294150256202703986e+01,-1.057441570610851755e+02
4.912621081764030350e+03,-1.306493835404947390e+01,-1.059416235567013729e+02
4.977791624066982877e+03,-1.333116084003136237e+01,-1.061412799665473869e+02
5.043826714950697351e+03,-1.331247557351829869e+01,-1.061231649857229371e+02
5.110737823465792644e+03,-1.343658693884736977e+01,-1.065164553843370783e+02
5.178536570810636476e+03,-1.349096138157880986e+01,-1.067535231577746941e+02
5.247234732349739716e+03,-1.368552067421298091e+01,-1.069620719968428517e+02
5.316844239658886181e+03,-1.381035350225765512e+01,-1.071728753677447230e+02
5.387377182597459978e+03,-1.393543742104078831e+01,-1.073859450671542533e+02
5.458845811408204099e+03,-1.406077787739877749e+01,-1.076012924711521919e+02
5.531262538844859591e+03,-1.418638040530282751e+01,-1.079832997086231501e+02
5.604639942328029065e+03,-1.431225062573051332e+01,-1.080388636733154897e+02
5.678990766129637450e+03,-1.443839424644876601e+01,-1.082611079378734189e+02
5.754327923586371980e+03,-1.456481706170353618e+01,-1.084856707976860548e+02
5.830664499342487943e+03,-1.469152495181289453e+01,-1.088746634130086903e+02
5.908013751622347627e+03,-1.481852388265843956e+01,-1.089417876121372188e+02
5.986389114533152679e+03,-1.494581990507207081e+01,-1.091733578318840614e+02
6.065804200398176363e+03,-1.507341915411265632e+01,-1.095078404199066711e+02
6.146272802120971392e+03,-1.520132784822948224e+01,-1.096435581547389688e+02
6.227808895580938042e+03,-1.532955228830779504e+01,-1.098822009032497533e+02
6.310426642060668200e+03,-1.537097398014371308e+01,-1.099513222427312371e+02
6.394140390705499158e+03,-1.519343005489620779e+01,-1.103665982635948239e+02
6.478964681015691895e+03,-1.571618430621052198e+01,-1.106123614820251220e+02
6.564914245371640391e+03,-1.620917175548222033e+01,-1.108605055917387432e+02
6.652004011592653114e+03,-1.597563683325100214e+01,-1.111110330519020835e+02
6.740249105529603185e+03,-1.579289305121783649e+01,-1.113639455404093752e+02
6.829664853692012002e+03,-1.623651028478981573e+01,-1.116192439294976424e+02
6.920266785909975624e+03,-1.636749700141622554e+01,-1.120629539983435450e+02
7.012070638031400449e+03,-1.649885966053007280e+01,-1.121369977234626845e+02
7.105092354655029339e+03,-1.663060530606597354e+01,-1.123994506245993961e+02
7.199348091899710198e+03,-1.676274104497747430e+01,-1.126642843700656726e+02
7.294854220210422682e+03,-1.777394575098403351e+01,-1.129314954376538367e+02
7.391627327201483240e+03,-1.702821152964567375e+01,-1.132010793535184519e+02
7.489684220537549663e+03,-1.711339253589688880e+01,-1.134730306682901215e+02
7.589041930852758014e+03,-1.741624875392958316e+01,-1.137473429334387021e+02
7.689717714708638596e+03,-1.742952394441533670e+01,-1.139625905078530650e+02
7.791729057591251149e+03,-1.756415266119196872e+01,-1.143030193852694509e+02
7.895093676948084976e+03,-1.769922273917025279e+01,-1.145843654708608028e+02
7.999829525265252414e+03,-1.852528572769786663e+01,-1.148680362599445033e+02
8.105954793185468588e+03,-1.797071701505535657e+01,-1.151540199659624335e+02
8.213487912667465935e+03,-1.810715630913684038e+01,-1.154423036695330040e+02
8.322447560187252748e+03,-1.824406714816846886e+01,-1.157328732980540735e+02
8.432852659981868783e+03,-1.838145713859404395e+01,-1.160257136059996412e+02
8.544722387336165411e+03,-1.857313798159376717e+01,-1.163208081559721450e+02
8.658076171913198777e+03,-1.865554768365094418e+01,-1.166181393005728211e+02
8.772933701128791654e+03,-1.872823146024289898e+01,-1.169176881651524411e+02
8.889314923570867904e+03,-1.888282686374450847e+01,-1.170590190545946854e+02
9.007240052464152541e+03,-1.853270075154805951e+01,-1.177152370332301672e+02
9.126729569180792168e+03,-1.921628647857357919e+01,-1.178294335882389845e+02
9.247804226797643423e+03,-1.931844659692379906e+01,-1.182504050832213096e+02
9.370485053700645949e+03,-1.949874189100987110e+01,-1.182159077049633567e+02
9.494793357237074815e+03,-1.964078731331154870e+01,-1.185470141364988734e+02
9.620750727416218069e+03,-1.978338791294416410e+01,-1.190747761376021572e+02
9.748379040659154271e+03,-1.992655116497780909e+01,-1.193912351193237953e+02
9.877700463598284841e+03,-2.007028449692884919e+01,-1.197096843947896900e+02
1.000873745692724515e+04,-2.027303847794176406e+01,-1.200300921074104821e+02
1.014151277930192737e+04,-2.038911588447690093e+01,-1.204725542464881585e+02
1.027604949129316628e+04,-2.050497839681864320e+01,-1.206766487123234555e+02
1.041237095939205028e+04,-2.065106514272278559e+01,-1.210027271823048665e+02
1.055050086006808124e+04,-2.079775816167860114e+01,-1.213306232462941949e+02
1.069046318388149484e+04,-2.094506445594416277e+01,-1.216602983430902043e+02
1.083228223964982317e+04,-2.084171904765715766e+01,-1.219917125789706347e+02
1.097598265866994188e+04,-2.095253213702196149e+01,-1.223248247347008686e+02
1.112158939899613142e+04,-2.139073154684247413e+01,-1.226595922744228062e+02
1.126912774977465779e+04,-2.154055896053452557e+01,-1.229959713564549020e+02
1.141862333563620996e+04,-2.197337976314988595e+01,-1.228614705740887842e+02
1.157010212114622300e+04,-2.184216027971336871e+01,-1.236733823300033350e+02
1.172359041531462572e+04,-2.214956125842707735e+01,-1.236136828761101896e+02
1.187911487616505656e+04,-2.214639840745712718e+01,-1.243566813386768644e+02
1.203670251536492287e+04,-2.229952129112986370e+01,-1.247004158052300653e+02
1.219638070291689837e+04,-2.245332108911586033e+01,-1.250454721932164119e+02
1.235817717191240263e+04,-2.260780337300266751e+01,-1.254956639386231529e+02
1.252212002334851604e+04,-2.256352163147517231e+01,-1.257393395251167050e+02
1.268823773100839207e+04,-2.291883682123224730e+01,-1.260880420224924023e+02
1.285655914640681658e+04,-2.307539824566381981e+01,-1.264378496074100582e+02
1.302711350380097247e+04,-2.323266266351109266e+01,-1.267887053507963060e+02
1.319993042526808495e+04,-2.339063472531819343e+01,-1.271405513012346802e+02
1.337503992585002925e+04,-2.354931887901487642e+01,-1.274933285211837131e+02
1.355247241876646149e+04,-2.370871936420398640e+01,-1.277619464660943294e+02
1.373225872069710749e+04,-2.386884020666013839e+01,-1.282014363186779633e+02
1.391443005713383900e+04,-2.419816517051151905e+01,-1.285566444413520912e+02
1.409901806780417610e+04,-2.419125796591579558e+01,-1.289125390083240461e+02
1.428605481216629414e+04,-2.435356181885319415e+01,-1.292690567557169743e+02
1.447557277497736868e+04,-2.451659989203379553e+01,-1.296261336865787257e+02
1.466760487193533299e+04,-2.524235373690203588e+01,-1.301664007116797848e+02
1.486218445539595814e+04,-2.484488998745709409e+01,-1.299994585542257823e+02
1.505934532016530829e+04,-2.476856118705392618e+01,-1.307000696209845785e+02
1.525912170936936127e+04,-2.495518786916447596e+01,-1.310587303441961069e+02
1.546154832040147994e+04,-2.534289591742768266e+01,-1.314176209765256260e+02
1.566666031094848222e+04,-2.515127234925309097e+01,-1.317927355318346940e+02
1.587449330509711945e+04,-2.567863582240846654e+01,-1.321358221711206511e+02
1.608508339952105052e+04,-2.539925522581651762e+01,-1.324949969483242285e+02
1.629846716975041818e+04,-2.646181390116199950e+01,-1.328541301743263148e+02
1.651468167652409829e+04,-2.618787468694252141e+01,-1.332131533182140970e+02
1.673376447222653951e+04,-2.635912471912446620e+01,-1.335719976941813059e+02
1.695575360741002805e+04,-2.576336530161695748e+01,-1.341792130931673057e+02
1.718068763740309078e+04,-2.681674502757566003e+01,-1.342888749623028843e+02
1.740860562900712102e+04,-2.687738714016531105e+01,-1.346467702151186359e+02
1.763954716728125641e+04,-2.734712570722164671e+01,-1.350042115339347220e+02
1.787355236241784951e+04,-2.721413267587581331e+01,-1.353611303027733186e+02
1.811066185670858249e+04,-2.740240588080993689e+01,-1.357174580875967251e+02
1.835091683160340835e+04,-2.757890838670662959e+01,-1.356412791788065704e+02
1.859435901486306830e+04,-2.775615632056073423e+01,-1.364280682089886341e+02
1.884103068780617832e+04,-2.793414767787511721e+01,-1.367822150803313548e+02
1.909097469265299151e+04,-2.811288020193684645e+01,-1.371355001440394972e+02
1.934423443996598508e+04,-2.829235138675537087e+01,-1.373921515519136847e+02
1.960085391618975336e+04,-2.847255848032183678e+01,-1.378392185064704165e+02
1.986087769129032313e+04,-2.865349848817884038e+01,-1.381895199379632686e+02
2.012435092649643411e+04,-2.911987385076874446e+01,-1.384215477889989359e+02
2.039131938214285401e+04,-2.901756408020770550e+01,-1.388866820601284076e+02
2.066182942561843811e+04,-2.920068249949679284e+01,-1.388879045740925733e+02
2.093592803941896273e+04,-2.938451951245332339e+01,-1.395788306377259573e+02
2.121366282930723173e+04,-2.956907097605323997e+01,-1.399499293068180918e+02
2.149508203258142748e+04,-2.975433253214936258e+01,-1.402654650462974644e+02
2.178023452645271391e+04,-2.976885683061966859e+01,-1.406065615500466208e+02
2.206916983653464558e+04,-3.038173452937419583e+01,-1.409460977999543445e+02
2.236193814544447014e+04,-3.031433106236582375e+01,-1.412840151160706625e+02
2.265859030151926709e+04,-3.050238529851353064e+01,-1.416121631813255135e+02
2.295917782764703225e+04,-3.069112480631133622e+01,-1.421743942752972316e+02
2.326375293021534890e+04,-3.064288629932791608e+01,-1.423089244336298123e+02
2.357236850817882078e+04,-3.107063735061231569e+01,-1.426002719862823369e+02
2.388507816224628186e+04,-3.126139881731994308e+01,-1.429597696839763614e+02
2.420193620419059516e+04,-3.145282242933208749e+01,-1.432743613728756884e+02
2.452299766628122961e+04,-3.154058045861966875e+01,-1.436613182255406116e+02
2.484831831084269652e+04,-3.186932572540116482e+01,-1.435231573005066252e+02
2.517795463993906378e+04,-3.203100359573133460e+01,-1.442432403399514840e+02
2.551196390518746921e+04,-3.189459411669986011e+01,-1.445062957782561170e+02
2.585040411770178980e+04,-3.241965133158842605e+01,-1.446464184721717743e+02
2.619333405816771119e+04,-3.261491311743776578e+01,-1.451927968171846146e+02
2.654081328705225314e+04,-3.217345617923144374e+01,-1.455048072962350716e+02
2.689290215494787844e+04,-3.279496141685508803e+01,-1.458144910837446844e+02
2.724966181305466307e+04,-3.320436637559467385e+01,-1.461218065253472389e+02
2.761115422380070231e+04,-3.340204957152353415e+01,-1.462749993171608196e+02
2.797744217160422704e+04,-3.360032000306519251e+01,-1.471181820766542785e+02
2.834858927377765212e+04,-3.379917025840205724e+01,-1.472968126485591824e+02
2.872465999157714032e+04,-3.399859285495293193e+01,-1.473265953761744811e+02
2.910571964139791453e+04,-3.419858024596267398e+01,-1.476214879198633980e+02
2.949183440611865080e+04,-3.439912482699439522e+01,-1.479137883816372039e+02
2.988307134659638177e+04,-3.460021894231385886e+01,-1.478577397231786961e+02
3.027949841331328935e+04,-3.524236667871296902e+01,-1.484904825411292961e+02
3.068118445817889369e+04,-3.487983706776841331e+01,-1.487748140465047868e+02
3.108819924648784217e+04,-3.443826122516910004e+01,-1.490564290670234868e+02
3.150061346903734375e+04,-3.540993618384919728e+01,-1.493352995298675410e+02
3.191849875440436881e+04,-3.561366177078021167e+01,-1.496113985504639743e+02
3.234192768138636529e+04,-3.581789022224447194e+01,-1.498847004188411063e+02
3.277097379160704440e+04,-3.602261369146543757e+01,-1.501551805848395418e+02
3.320571160228871304e+04,-3.622782432664487828e+01,-1.504228156422408347e+02
3.364621661919503094e+04,-3.643351427605611548e+01,-1.506875833118793082e+02
3.409256534974438546e+04,-3.663967569296787019e+01,-1.509494624238003553e+02
3.454483531629837671e+04,-3.684630074039723979e+01,-1.512084328985291961e+02
3.500310506962547515e+04,-3.705338159568813694e+01,-1.514644757275130473e+02
3.546745420254403143e+04,-3.726091045491413922e+01,-1.517175729527997419e+02
3.593796336374624661e+04,-3.746887953710400154e+01,-1.519677076460140484e+02
3.641471427180484170e+04,-3.777007444563101757e+01,-1.522148638866923136e+02
3.689778972936661012e+04,-3.788610738537001055e+01,-1.524590267400359949e+02
3.738727363753310055e+04,-3.809535073981022890e+01,-1.527001822341403283e+02
3.788325101043322502e+04,-3.830500350114320440e+01,-1.529383173367572510e+02
3.838580798998803948e+04,-3.858158445538686010e+01,-1.531734199316467198e+02
3.889503186087254289e+04,-3.849926709570933525e+01,-1.534180869365527826e+02
3.941101106567481474e+04,-3.893634236167834217e+01,-1.536344835689786521e+02
3.993383522025740967e+04,-3.914755712032365409e+01,-1.538604247414469910e+02
4.046359512932138750e+04,-3.935914371512389209e+01,-1.540832936169001073e+02
4.100038280217766442e+04,-3.957109478791730339e+01,-1.543030822936810580e+02
4.154429146872747515e+04,-3.966124703107062999e+01,-1.545197836385046060e+02
4.209541559565412899e+04,-3.999606122575202960e+01,-1.547007380573083140e+02
4.265385090283073077e+04,-4.020906217163440033e+01,-1.549438994902563991e+02
4.321969437994425243e+04,-4.042239876098588525e+01,-1.551513033462971123e+02
4.379304430334148492e+04,-4.063606394419741719e+01,-1.553555985183734265e+02
4.437400025309720513e+04,-4.085005073852235569e+01,-1.556424472778507777e+02
4.496266313030960009e+04,-4.106435222944182328e+01,-1.556397772901974861e+02
4.555913517462515301e+04,-4.127896157188637005e+01,-1.559497983136554353e+02
4.616351998199512309e+04,-4.149387199131746229e+01,-1.563039150006941327e+02
4.677592252266893775e+04,-4.170907678467332858e+01,-1.562046047001663851e+02
4.739644915942480293e+04,-4.192456932118230384e+01,-1.565159236439627648e+02
4.802520766604365781e+04,-4.214034304304848888e+01,-1.565495907099217732e+02
4.866230724602680129e+04,-4.235639146601297966e+01,-1.568777306622470462e+02
4.930785855156275647e+04,-4.257270817979501487e+01,-1.570539516176798429e+02
4.996197370274575223e+04,-4.278928684841743291e+01,-1.572270520894477954e+02
5.062476630704820855e+04,-4.265503436832926099e+01,-1.573970335019795925e+02
5.129635147905299527e+04,-4.322320507896223774e+01,-1.575638976611379292e+02
5.197684586044584285e+04,-4.344053234182933920e+01,-1.577276467322922144e+02
5.266636764027465688e+04,-4.365067219538374843e+01,-1.578882832187729548e+02
5.336503657547597686e+04,-4.387589297409479627e+01,-1.580458099407188683e+02
5.407297401167481439e+04,-4.409391449080553116e+01,-1.583436725075656852e+02
5.479030290426032298e+04,-4.431215569580167823e+01,-1.583515468315282249e+02
5.551714783974063175e+04,-4.453061084662807900e+01,-1.584997640400546288e+02
5.625363505738090316e+04,-4.474927427349081199e+01,-1.586448855239775924e+02
5.699989247112900193e+04,-4.496814037863748581e+01,-1.587869153846506833e+02
5.775604969183202047e+04,-4.518720363566339415e+01,-1.584730542950963752e+02
5.852223804974646191e+04,-4.540645858874663077e+01,-1.590078419032328441e+02
5.929859061734877469e+04,-4.562589985181644181e+01,-1.591944991123813509e+02
6.008524223244655877e+04,-4.610013609429874037e+01,-1.593242071974691214e+02
6.088232952159832348e+04,-4.606532010694934343e+01,-1.594508467898124877e+02
6.168999092384210962e+04,-4.635930839256838709e+01,-1.595744229194562820e+02
6.250836671474008472e+04,-4.650542267196246371e+01,-1.596949407129419569e+02
6.333759903074214526e+04,-4.672571706912846423e+01,-1.598124053778669520e+02
6.417783189387147286e+04,-4.694616687034417168e+01,-1.599268221878981819e+02
6.502921123673945840e+04,-4.692209470109586533e+01,-1.600381964682387093e+02
6.589188492789037991e+04,-4.738751304151881527e+01,-1.599718906074901952e+02
6.676600279748448520e+04,-4.757032271155508596e+01,-1.602518389142984176e+02
6.765171666331971937e+04,-4.782942250120341043e+01,-1.602081470159569392e+02
6.854918035719994805e+04,-4.765200679622759594e+01,-1.604533758244925252e+02
6.945854975165319047e+04,-4.827185749909554602e+01,-1.605496181775432092e+02
7.037998278700263472e+04,-4.849326052233345763e+01,-1.606428502770925206e+02
7.131363949879909342e+04,-4.871478117419157172e+01,-1.607330774397680102e+02
7.225968204561501625e+04,-4.893641497832199150e+01,-1.608451514392557726e+02
7.321827473720950366e+04,-4.915815750800820183e+01,-1.609045379669204863e+02
7.418958406306483084e+04,-4.938000438460569796e+01,-1.609857816792624874e+02
7.517377872130292235e+04,-4.960195127595957842e+01,-1.611561593641943659e+02
7.617102964798541507e+04,-4.982399389480009688e+01,-1.611393212924086242e+02
7.718151004680161714e+04,-5.004612799711756566e+01,-1.612116270389313968e+02
7.820539541915056179e+04,-5.026834938051833035e+01,-1.612316956552759279e+02
7.924286359462245309e+04,-5.049065388256302356e+01,-1.613473342449822781e+02
8.029409476188488770e+04,-5.071303737908866083e+01,-1.614107448912087079e+02
8.135927149997722881e+04,-5.093549578251500520e+01,-1.616491167707218892e+02
8.243857881002164504e+04,-5.115802504013737462e+01,-1.615287022802078809e+02
8.353220414735464146e+04,-5.138062113240624740e+01,-1.615832574152584584e+02
8.464033745408419054e+04,-5.160328007119505855e+01,-1.616348688617620724e+02
8.576317119207874930e+04,-5.182599789805664159e+01,-1.615402890586941567e+02
8.690090037639460934e+04,-5.204877068247012062e+01,-1.617292758155718673e+02
8.805372260914684739e+04,-5.227159452007836649e+01,-1.619444306157598419e+02
8.922183811382786371e+04,-5.249446553091684109e+01,-1.616150833999550400e+02
9.040544977008386923e+04,-5.271737985763533629e+01,-1.618488988197178458e+02
9.160476314894975803e+04,-5.301413017544861361e+01,-1.618829226203655480e+02
9.281998654855445784e+04,-5.316332313166307699e+01,-1.620420109757580178e+02
9.405133103029706399e+04,-5.338634446124331134e+01,-1.619422114467345466e+02
9.529901045550474373e+04,-5.360939386764616188e+01,-1.620522819103886718e+02
9.656324152257705282e+04,-5.419877964875641396e+01,-1.619898383525294889e+02
9.784424380462098634e+04,-5.443907119211994683e+01,-1.620092840386395494e+02
9.914223978758823068e+04,-5.427867289333028111e+01,-1.619566415915741118e+02
1.004574549089152570e+05,-5.450179700441367459e+01,-1.620394490889013923e+02
1.017901175966790761e+05,-5.472493043650933942e+01,-1.620501715487725676e+02
1.031404593092695723e+05,-5.494806945939055254e+01,-1.620579890325501538e+02
1.045087145755899546e+05,-5.496543972296475999e+01,-1.620629025925319127e+02
1.058951210357905220e+05,-5.539434936844438084e+01,-1.620649130821105643e+02
1.072999194825418235e+05,-5.561748280054007409e+01,-1.620640211559221200e+02
1.087233539028553787e+05,-5.584060691162349599e+01,-1.620602272703320352e+02
1.101656715204600332e+05,-5.533324840815440382e+01,-1.622918693022727439e+02
1.116271228387407900e+05,-5.628681222525744943e+01,-1.621836089061443431e+02
1.131079616842451069e+05,-5.650988593730761522e+01,-1.620314354664438383e+02
1.146084452507684764e+05,-5.673293534371046576e+01,-1.620160343774845444e+02
1.161288341440246732e+05,-5.733169049579456811e+01,-1.624360338389207357e+02
1.176693924269074778e+05,-5.717894614124151076e+01,-1.619765236628842047e+02
1.192303876653530751e+05,-5.740189994731844081e+01,-1.619524124438235617e+02
1.208120909748115664e+05,-5.762481427403690759e+01,-1.619253959489640522e+02
1.224147770673354098e+05,-5.806051617665436737e+01,-1.618954729282626772e+02
1.240387242992900428e+05,-5.807050912248365648e+01,-1.618626419570576331e+02
1.256842147197010345e+05,-5.829328190689716394e+01,-1.618269014403491326e+02
1.273515341192387132e+05,-5.851599973375869013e+01,-1.617882496174384812e+02
1.290409720798567141e+05,-5.875979214618420343e+01,-1.617466845669281099e+02
1.307528220250849990e+05,-5.896125476481640248e+01,-1.617022042120866843e+02
1.324873812709928316e+05,-5.918378402243877190e+01,-1.616548063265817916e+02
