Frequency (Hz), Gain (dB), Phase (deg)
1.813417900768152322e+03,4.908254042101047077e+01,-2.347742994962171537e+01
1.839649887065158055e+03,5.200352797129645666e+01,-2.503949574402514600e+01
1.866261332010275055e+03,5.436257253379761067e+01,-2.531691423224819459e+01
1.893257724660414397e+03,5.139154305777686460e+01,-2.476059127347218691e+01
1.920644633474403008e+03,5.211052618635211076e+01,-2.938218520121765920e+01
1.948427707461582941e+03,5.056278532227288736e+01,-2.243354822176226548e+01
1.976612677347006411e+03,5.218566816102772776e+01,-2.919650204479368583e+01
2.005205356753498791e+03,5.222441192215345040e+01,-2.671967870405730139e+01
2.034211643400806452e+03,4.931422437717796470e+01,-2.997433536577191404e+01
2.063637520322114142e+03,5.230429348710028847e+01,-2.728683971973777034e+01
2.093489057098135618e+03,5.234545027096417869e+01,-3.476405356041352235e+01
2.123772411109073346e+03,5.058746247818763919e+01,-2.785659117662563133e+01
2.154493828804671011e+03,5.243024212640774806e+01,-2.814224474121655106e+01
2.185659646992661237e+03,5.247389520429388909e+01,-3.137689733709157025e+01
2.217276294145831798e+03,5.252248618618105525e+01,-2.871470357739008961e+01
2.249350291728007960e+03,5.256375929022244264e+01,-3.144973090232025115e+01
2.281888255539206966e+03,5.260998715593374442e+01,-2.994568673162943639e+01
2.314896897080269810e+03,5.265708979022980429e+01,-2.957500365030544742e+01
2.348383024937212213e+03,5.270507508102245708e+01,-2.873998131067798312e+01
2.382353546185612686e+03,5.315945710517602407e+01,-2.973266351816658215e+01
2.416815467815313241e+03,5.280372401524024895e+01,-2.706580429924967390e+01
2.451775898175721522e+03,5.285440224156250366e+01,-3.072134654865982384e+01
2.487242048442039504e+03,5.290599227470511323e+01,-2.702445349772664684e+01
2.523221234102680683e+03,5.295850076329632117e+01,-3.129252743538728510e+01
2.559720876468217739e+03,5.301193408628019910e+01,-3.157728045078230750e+01
2.596748504202139429e+03,5.306629834661078604e+01,-3.819724605643651216e+01
2.634311754873783684e+03,5.312159936541196004e+01,-2.891692370942037726e+01
2.672418376533698847e+03,5.367035844982879667e+01,-3.242698508591731610e+01
2.711076229311819134e+03,5.323503352217043982e+01,-3.270836037985649369e+01
2.750293287038733979e+03,5.202816113188205094e+01,-3.298863254435658376e+01
2.790077638890442813e+03,5.335227729848978129e+01,-3.531676579747166755e+01
2.830437491056870385e+03,5.341233921694237807e+01,-3.354544505110655450e+01
2.871381168434538722e+03,5.001690219577469065e+01,-3.382177221230583797e+01
2.912917116343704492e+03,5.353536329381971370e+01,-3.409657005209696479e+01
2.955053902270365143e+03,5.359833259959503948e+01,-3.489049022450722504e+01
2.997800217633433476e+03,5.366227766544606936e+01,-3.631744901433704342e+01
3.041164879577495412e+03,5.459992953723150322e+01,-3.065939642132421028e+01
3.085156832791492434e+03,5.379310596157763769e+01,-3.517829823420597535e+01
3.129785151353704805e+03,5.032667016740931132e+01,-3.544381878581904743e+01
3.175059040603449830e+03,5.392786685889266352e+01,-4.302544902674512883e+01
3.220987839039823939e+03,5.331575901256777428e+01,-3.596819924880304598e+01
3.267581020247933793e+03,5.731511575217403021e+01,-3.622683989195431309e+01
3.314848194852966117e+03,5.413741062783174129e+01,-3.103092270216782111e+01
3.362799112502562366e+03,5.420923670600831912e+01,-3.993966379017196999e+01
3.411443663877832023e+03,5.428205274483784137e+01,-3.698725113361902572e+01
3.460791882733476541e+03,5.435585884523886335e+01,-3.259100714215078654e+01
3.510853947967421846e+03,5.443065483026867213e+01,-4.837511019210988650e+01
3.561640185720373211e+03,5.638804038534670582e+01,-3.772211551370548932e+01
3.613161071505776363e+03,5.458321439683389542e+01,-3.521701028639015618e+01
3.665427232370556794e+03,5.259439309663024886e+01,-4.029351978950084145e+01
3.718449449087115681e+03,5.473972473315023279e+01,-3.842853705663244313e+01
3.772238658377066258e+03,5.481945824866551931e+01,-3.742660333467544120e+01
3.826805955167103548e+03,5.382161125816475078e+01,-3.888228022206441636e+01
3.882162594877520405e+03,5.374804556154548862e+01,-3.910368106618696515e+01
3.938319995743832351e+03,5.091971724967834945e+01,-4.033273627288750873e+01
3.995289741171962305e+03,5.624740028206394271e+01,-3.901416048607941178e+01
4.053083582127538648e+03,5.523283535948725387e+01,-3.974479306895713648e+01
4.111713439559712242e+03,5.294421708441197438e+01,-4.726260467472808813e+01
4.171191406860059033e+03,5.326136155550241824e+01,-4.015197784896759003e+01
4.231529752357030702e+03,5.582256713937690762e+01,-4.034921615291693797e+01
4.292740921846524543e+03,5.558104141000876552e+01,-3.731564554979250659e+01
4.354837541159025022e+03,5.886884891471184744e+01,-4.073052085249943133e+01
4.417832418763894566e+03,5.576091403837688887e+01,-4.091440648397629332e+01
4.481738548411341071e+03,5.585228090699852999e+01,-4.065782602211898222e+01
4.546569111812578740e+03,5.594459667386762192e+01,-4.126820481199195001e+01
4.612337481358801597e+03,5.603785762630663925e+01,-4.143794686165362862e+01
4.679057222879456276e+03,5.613205997919799017e+01,-4.160280669526362374e+01
4.746742098440398877e+03,5.622719988740130503e+01,-4.580840376860768970e+01
4.815406069182589818e+03,5.530983765171642119e+01,-4.191755825402526625e+01
4.885063298201785074e+03,5.702572225194242606e+01,-4.206729393214019552e+01
4.955728153469924109e+03,5.651820585224059812e+01,-4.221183536000409475e+01
5.027415210798767475e+03,5.897908748048269700e+01,-4.336519145597248581e+01
5.100139256846381613e+03,5.701054887828259865e+01,-3.731183584053986380e+01
5.173915292167166626e+03,5.681750822011382240e+01,-4.538016545967915505e+01
5.248758534305950889e+03,5.691910089712913390e+01,-3.777538025223650209e+01
5.324684420936877359e+03,5.702159967956504261e+01,-4.285413580636664221e+01
5.401708613047659128e+03,5.712500072917561056e+01,-4.417850762585035795e+01
5.479846998169952712e+03,5.722930026653138924e+01,-3.976378390671940366e+01
5.559115693656410258e+03,5.533512029961882916e+01,-4.317280740177984910e+01
5.639531050005155521e+03,5.744058004535790474e+01,-4.326754660639105765e+01
5.721109654232354842e+03,6.060628614428058825e+01,-4.783386610336294353e+01
5.803868333293545220e+03,5.181231549155081240e+01,-4.105770777760973544e+01
5.887824157554511658e+03,5.776414844280179040e+01,-4.351654212427334301e+01
5.972994444312316773e+03,6.124010867421646509e+01,-4.358763102246776810e+01
6.059396761367266663e+03,5.885595118915251334e+01,-4.365268592491189281e+01
6.147048930646601548e+03,5.947949040395606346e+01,-4.371166248044887936e+01
6.235969031880542389e+03,5.293697406051830967e+01,-4.376451844970449656e+01
6.326175406331544764e+03,5.832094374998403197e+01,-4.381121370578040342e+01
6.417686660577490329e+03,6.338792634546589966e+01,-4.170249919286018070e+01
6.510521670349615306e+03,5.854972602241289792e+01,-4.388597213272168318e+01
6.604699584425916328e+03,5.962801781715255345e+01,-4.391396560956215467e+01
6.700239828580950416e+03,5.878194519866418943e+01,-4.393565898270288983e+01
6.797162109592706656e+03,6.076412022551478032e+01,-4.395102267777860305e+01
6.895486419307436336e+03,5.901758623098154999e+01,-4.309125330846389801e+01
6.995233038763349214e+03,6.163305029549042757e+01,-4.696017553484720963e+01
7.096422542373891702e+03,5.925663708808757235e+01,-4.395887152433498102e+01
7.199075802171570103e+03,5.937743830052178851e+01,-4.153067211229331690e+01
7.303213992113165659e+03,5.949908889301951831e+01,-4.800293829694143000e+01
7.408858592447187220e+03,6.144969339086581783e+01,-4.390889049413580381e+01
7.516031394144580190e+03,6.086988577532133604e+01,-4.194622527129618561e+01
7.624754503393453888e+03,6.379926953914163335e+01,-4.384320879001703730e+01
7.735050346158834145e+03,6.418187053518363427e+01,-4.291006397282015428e+01
7.846941672808437033e+03,5.719176025681126418e+01,-4.375152376751279348e+01
7.960451562805288631e+03,6.024681058018447288e+01,-4.369590978050512575e+01
8.075603429468252216e+03,5.895846847282228964e+01,-4.363377485669381883e+01
8.192421024801422391e+03,6.732223760709680960e+01,-4.571747450627131570e+01
8.310928444393386599e+03,6.063213694977848434e+01,-4.380259898086252690e+01
8.431150132387296253e+03,5.852089732601571370e+01,-4.703539833974893014e+01
8.553110886522952569e+03,6.539219663193277654e+01,-5.009385866571475532e+01
8.676835863251711999e+03,6.102514052958743918e+01,-4.189421165785455514e+01
8.802350582925413619e+03,5.886393646790516954e+01,-4.312403918301555450e+01
8.929680935060423508e+03,6.129143011933074092e+01,-5.075611434422567214e+01
9.058853183677751076e+03,6.142586738976801541e+01,-5.133232285715067178e+01
9.189893972720454258e+03,6.043224339036332537e+01,-4.278141575505720340e+01
9.322830331549404946e+03,6.169733931131258231e+01,-4.233363289811713770e+01
9.457689680518507885e+03,6.183437947929645873e+01,-4.365562619425069357e+01
9.594499836630677237e+03,6.027155116094746745e+01,-4.238074645564093146e+01
9.733289019275520332e+03,5.845628747630556887e+01,-4.223438176941733957e+01
9.874085856050030998e+03,6.225075350946302422e+01,-4.208165229749436520e+01
1.001691938866358032e+04,6.239130716001385224e+01,-4.192258474224995268e+01
1.016181907892820709e+04,6.091409635746750695e+01,-4.175720786561902997e+01
1.030881481483562129e+04,6.267507951114033204e+01,-4.158555248390864989e+01
1.045793691672211389e+04,6.281830588140035587e+01,-4.140765146163661115e+01
1.060921614352262077e+04,6.296243103075480008e+01,-4.122353970428380165e+01
1.076268369911530135e+04,6.310745908483285405e+01,-4.128592827927204922e+01
1.091837123875776706e+04,6.325339426893936690e+01,-4.019902548833024269e+01
1.107631087561664572e+04,6.340024089831019438e+01,-4.182387358248697495e+01
1.123653518739137508e+04,6.599800453073818574e+01,-4.042575435691835395e+01
1.139907722303391347e+04,6.356827368549581081e+01,-4.021118327246539081e+01
1.156397050956564453e+04,6.384629374653174949e+01,-3.999065317516893003e+01
1.173124905899289297e+04,6.513892022169827101e+01,-3.843723529987998688e+01
1.190094737532246472e+04,6.414830176469460810e+01,-3.953191337082454737e+01
1.207310046167867949e+04,6.430071142320215927e+01,-3.929380718233865366e+01
1.224774382752337624e+04,6.353678151061394885e+01,-3.904994897192637637e+01
1.242491349598023589e+04,6.460836527497505699e+01,-3.686639090763310378e+01
1.260464601126530761e+04,6.476361876460208578e+01,-3.854520413676159052e+01
1.278697844622476077e+04,6.757380147999802489e+01,-3.828443587908337520e+01
1.297194840998181462e+04,6.507700197699263356e+01,-3.801815226869180009e+01
1.315959405569423689e+04,6.523514083839118882e+01,-3.792217072388987731e+01
1.334995408842409051e+04,6.841502136507560294e+01,-4.205922197823794306e+01
1.354306777312128906e+04,6.043242193938942108e+01,-3.718685346775474443e+01
1.373897494272268159e+04,6.571540010273574239e+01,-3.790015169743153223e+01
1.393771600636815492e+04,6.587744855391497367e+01,-3.660628724853111748e+01
1.413933195773586522e+04,6.604048502136785714e+01,-3.630830418353869504e+01
1.434386438349775381e+04,6.620451354172500658e+01,-3.600528470361822997e+01
1.455135547189753015e+04,6.601142119038217970e+01,-2.874136292542562643e+01
1.476184802145270078e+04,6.653556225026220261e+01,-3.881776382899897726e+01
1.497538544978248501e+04,6.670258984147535841e+01,-3.506675870206197487e+01
1.519201180256342377e+04,6.687062427037609780e+01,-3.296740394844041333e+01
1.541177176261454224e+04,6.880881171599062895e+01,-3.441729170754587130e+01
1.563471065911395999e+04,6.436514113500808776e+01,-3.364729615974151500e+01
1.586087447694866751e+04,6.859451858842990646e+01,-3.427352273601734112e+01
1.609030986619987198e+04,6.755289369372668773e+01,-3.575786724221788404e+01
1.632306415176523478e+04,6.897847892523489577e+01,-3.306416458135648639e+01
1.655918534312045085e+04,6.790014642480554130e+01,-3.414923456185068318e+01
1.679872214422201068e+04,6.807531059941233309e+01,-3.236182959211534893e+01
1.704172396355321689e+04,6.902464702433395871e+01,-3.336441714030375039e+01
1.728824092431549798e+04,6.842872393021647781e+01,-3.164321753117711467e+01
1.753832387476720760e+04,6.782478289695086460e+01,-2.990038078348361239e+01
1.779202439871177558e+04,7.143021002753366133e+01,-3.090901775021512421e+01
1.804939482613796281e+04,6.896657731265264601e+01,-3.053628957393168619e+01
1.831048824401364254e+04,6.914792785021822397e+01,-3.015992548978448440e+01
1.857535850723591648e+04,7.122781543806638638e+01,-3.041812200685651391e+01
1.884406024973960302e+04,6.951373071658329650e+01,-2.251759622990483933e+01
1.911664889576638598e+04,6.969818301525073423e+01,-2.900989139530685534e+01
1.939318067129699921e+04,6.988366875828329228e+01,-2.686823966283802534e+01
1.967371261564877932e+04,7.392026760831470256e+01,-2.822662270785184901e+01
1.995830259324099461e+04,7.360685020374324949e+01,-3.006227693303977944e+01
2.024700930553036596e+04,7.044631843935736981e+01,-2.743090018060509294e+01
2.053989230311908250e+04,7.013598808955357811e+01,-2.702858356222724012e+01
2.083701199803836062e+04,7.082656566103977980e+01,-2.662341015521172949e+01
2.113842967620926356e+04,7.101822820780284928e+01,-2.668012864500379777e+01
2.144420751008399020e+04,6.863806606540251209e+01,-2.800612928329744022e+01
2.175440857146999770e+04,7.140461969411178700e+01,-2.943679331760488793e+01
2.206909684453966111e+04,7.159934326130337467e+01,-2.497582072639955442e+01
2.238833723902790007e+04,7.179508137176246407e+01,-2.943112797059211516e+01
2.271219560362115953e+04,7.210438652204337018e+01,-2.136521555075796641e+01
2.304073873953965449e+04,7.218958771656892281e+01,-2.344620468675816127e+01
2.337403441431625834e+04,7.238834859768655861e+01,-2.328909783382835741e+01
2.371215137577470523e+04,7.258810932824883366e+01,-2.286189085481839101e+01
2.405515936620998400e+04,7.278886566070421793e+01,-2.223978082749701457e+01
2.440312913677385586e+04,7.197635981011613637e+01,-2.200136947145145783e+01
2.475613246206845361e+04,7.319334707296863485e+01,-2.180519292804256537e+01
2.511424215495102544e+04,7.339706261408836951e+01,-1.442026745870373716e+01
2.547753208155277025e+04,7.360175469706430817e+01,-1.919298558581488834e+01
2.584607717651506027e+04,7.380741808272971127e+01,-2.025787737903489827e+01
2.621995345844571420e+04,7.326375574916266942e+01,-1.981772073600239281e+01
2.659923804559946802e+04,7.422163696041769754e+01,-2.391937843565019861e+01
2.698400917178466625e+04,7.443018115914615862e+01,-1.893271144593359523e+01
2.737434620250036096e+04,7.463967409468804703e+01,-1.529399573992647277e+01
2.777032965130678349e+04,7.254729692330435853e+01,-1.804183616945856627e+01
2.817204119643267040e+04,7.955942062580929530e+01,-1.426867341401848144e+01
2.857956369762252871e+04,7.438154882524744949e+01,-1.714554220373219096e+01
2.899298121322820953e+04,7.365705339792459938e+01,-1.669549430691794711e+01
2.941237901754710401e+04,7.599537272430127643e+01,-1.593830480504075986e+01
2.983784361841147620e+04,7.841796782599099913e+01,-1.579184113233185371e+01
3.026946277503214515e+04,7.613217239631094913e+01,-1.487253292437004326e+01
3.070732551610027804e+04,7.634903095694915010e+01,-1.590813743424051552e+01
3.115152215815108502e+04,7.677925512910594819e+01,-1.442813947505941030e+01
3.160214432419308650e+04,7.678541587455870854e+01,-1.397154430309198858e+01
3.205928496260692191e+04,8.044946796130749078e+01,-1.351399765139581355e+01
3.252303836631749073e+04,7.568104910828010645e+01,-1.305553390432263150e+01
3.299350019224353309e+04,7.979941173833296375e+01,-1.048812458484489873e+01
3.347076748102818965e+04,7.672013294516318638e+01,-1.213598235118840485e+01
3.395493867705568846e+04,7.736142950535973739e+01,-1.391980633920499599e+01
3.444611364875685831e+04,7.811543348956335819e+01,-1.121312367736485349e+01
3.494439370920875081e+04,7.983397025017163173e+01,-1.075051846970769986e+01
3.544988163703213650e+04,7.856555053289145008e+01,-1.028715967357401517e+01
3.596268169759144075e+04,8.136842072621097088e+01,-9.823067600368718288e+00
3.648289966450088104e+04,7.757644823140434198e+01,-1.111856005181882878e+01
3.701064284144251724e+04,7.924690248340409937e+01,-8.507058581564807653e+00
3.754602008429913985e+04,7.947564187337300723e+01,-1.070459285232672286e+01
3.808914182360767882e+04,8.094615938796856369e+01,-7.959706685055011555e+00
3.864012008733736729e+04,8.317764737949093501e+01,-8.988392803576047640e+00
3.919906852399740455e+04,8.016664218957562582e+01,-7.024017769460785487e+00
3.976610242607883993e+04,8.240373352655664974e+01,-6.555205750771641249e+00
4.034133875383558916e+04,8.063123693778669576e+01,-6.085757415051311625e+00
4.092489615940945805e+04,7.659637737722648865e+01,-6.739966357841115752e+00
4.151689501130414283e+04,8.109892321478146471e+01,-5.144968565354165690e+00
4.211745741921330773e+04,8.133391286163876543e+01,-4.673632707267373121e+00
4.272670725920745463e+04,8.019710920373752572e+01,-4.201669954593421075e+00
4.334477019928593654e+04,8.586278375807104624e+01,-1.670661602878062535e+00
4.397177372529772401e+04,8.335914075973896331e+01,-3.255857876673607265e+00
4.460784716723763268e+04,8.228140433720541580e+01,-3.766341851335211821e+00
4.525312172592277057e+04,8.252013860766027165e+01,-2.307508058468150214e+00
4.590773050005491677e+04,8.275960939582256515e+01,-6.387571448777311645e+00
4.657180851367446303e+04,8.299981303663975041e+01,-1.356577624755604505e+00
4.724549274401099683e+04,8.324074607568979900e+01,-8.801266937423344316e-01
4.792892214973771479e+04,8.263608959794885322e+01,-4.030071426244932198e-01
4.862223769963363884e+04,8.440025817166987565e+01,8.044020280555876090e-02
4.932558240166082396e+04,8.579255414102121335e+01,-1.662604275239819795e+00
5.003910133246221085e+04,8.421171069932188402e+01,4.200606343867305803e+00
5.076294166728608252e+04,8.445624652907631003e+01,2.450806052395974710e+00
5.149725271034344041e+04,8.603625795410222565e+01,1.101612013659514222e+00
5.224218592560449179e+04,8.719920642056288784e+01,2.474342546832870138e+00
5.299789496804064402e+04,8.203577464295395316e+01,2.396979397911279008e+00
5.376453571531853231e+04,8.342792331652064775e+01,3.439323663773158568e+00
5.454226629995193798e+04,8.568959043114631413e+01,-7.181071713369329146e-01
5.533124714191997919e+04,8.593838212356058648e+01,4.941357568473910611e+00
5.613164098175593972e+04,8.780584812369833969e+01,4.892661573008385112e+00
5.694361291411535058e+04,8.643808110294523317e+01,2.167785609546053482e+00
5.776733042182955251e+04,8.359462075363539668e+01,5.865629314652688997e+00
5.860296341045183362e+04,8.694059860496295755e+01,6.353378531045569488e+00
5.945068424330339622e+04,8.402805166759334554e+01,7.691018422614684269e+00
6.031066777702573745e+04,8.822900536447330921e+01,1.200719322568135183e+01
6.118309139764845895e+04,8.769966153492008232e+01,7.821854541563135754e+00
6.206813505717763474e+04,8.656917453635159632e+01,5.790366902845017094e+00
6.296598131071405805e+04,9.188986365605863682e+01,1.297132019099872657e+01
6.387681535410830838e+04,8.407559224820749932e+01,9.298451221916025133e+00
6.480082506216046022e+04,9.208340614156836068e+01,8.799275188968573858e+00
6.573820102737245907e+04,8.426951802840771677e+01,1.028752350823677197e+01
6.668913659926097898e+04,8.815490530456241913e+01,7.952753511894004035e+00
6.765382792423902720e+04,8.949560172902607746e+01,1.313275212737961439e+01
6.863247398607459036e+04,8.975502076942873941e+01,1.177835425373107192e+01
6.962527664693378028e+04,9.001516021049256722e+01,1.333032488723545583e+01
7.063244068901914579e+04,9.152442730591242537e+01,1.041028654129932107e+01
7.165417385680886218e+04,9.053761071371880575e+01,7.785281783706818004e+00
7.269068689990766870e+04,9.079992738446634348e+01,1.377994946984560798e+01
7.374219361651755753e+04,9.094712161869463785e+01,1.428285375021135550e+01
7.480891089753713459e+04,9.432409593738516662e+01,1.478676643143244718e+01
7.589105877129924193e+04,8.690535282513356208e+01,1.529168846004381876e+01
7.698886044895483064e+04,9.185654241640690998e+01,1.455781116711805367e+01
7.810254237051498785e+04,9.184278398453295722e+01,1.630455768444195996e+01
