Frequency (Hz), Gain (dB), Phase (deg)
1.362352027514453312e+03,7.354619954823411376e+01,-1.473669636671469085e+01
1.385958765170793868e+03,7.286406815820662075e+01,-1.107041503228855106e+01
1.409974558674316768e+03,7.286597523599989756e+01,-6.711266124451051418e+00
1.434406496115233494e+03,7.378622803630165095e+01,-2.298149790301035722e+00
1.459261788405671950e+03,7.198558940316887345e+01,-6.653002425307782630e+00
1.484547771407924756e+03,7.287210018243392540e+01,-1.388674589735743226e+01
1.510271908099577558e+03,7.287428410938241541e+01,-5.823993779749557120e+00
1.536441790776151265e+03,7.272152957512496130e+01,-1.604937173999942246e+01
1.563065143291921004e+03,7.079752469775806389e+01,-7.432748873143002477e+00
1.590149823339546629e+03,7.288129726794561236e+01,-1.302840969105855962e+01
1.617703824769221001e+03,7.288379755100058333e+01,-2.570420739089988693e+00
1.645735279947996787e+03,7.319887407067179197e+01,-7.821456030747456545e+00
1.674252462159996412e+03,7.288905866358845742e+01,-4.281507428399331516e-01
1.703263788048212291e+03,7.107739051855540424e+01,-8.091555439954984053e+00
1.732777820098619713e+03,7.430760493874886663e+01,-8.229995813421224327e+00
1.762803269167333383e+03,7.289764656696672773e+01,-4.992584310056697561e+00
1.793348997051554079e+03,7.290070751380309844e+01,-8.513832181663234522e+00
1.824424019105065554e+03,7.379945567907374482e+01,-8.659299015141050049e+00
1.856037506899051323e+03,7.227687643073331003e+01,-8.807179454568085930e+00
1.888198790929018969e+03,7.196866319168661619e+01,-9.855916434404072390e+00
1.920917363368626866e+03,7.291403414733792943e+01,-2.162762844597422962e+00
1.954202880871239813e+03,7.360618141871951536e+01,-9.265667488977939570e+00
1.988065167420010084e+03,7.292139900294156973e+01,-1.387993826753947069e+01
2.022514217227362678e+03,7.346569673780631149e+01,-1.027551663710973884e+01
2.057560197684714694e+03,7.292927390521319353e+01,-9.747206750851736601e+00
2.093213452363308534e+03,7.388818854186628471e+01,-1.119009808889685154e+01
2.129484504067042508e+03,7.264175852011935319e+01,-2.514666303224403521e+01
2.166384057938202659e+03,7.294211821380717709e+01,-1.025282357035951719e+01
2.203923004617006882e+03,7.203343027992285386e+01,-1.042689400534575839e+01
2.242112423455901990e+03,7.295142305058142540e+01,-2.773623344095630827e+00
2.280963585789555509e+03,7.295631280483043213e+01,-1.078356843405369681e+01
2.320487958261504900e+03,7.281195208159999765e+01,-1.096625205762542876e+01
2.360697206208468288e+03,7.380826995133578805e+01,-1.666836650803487174e+01
2.401603197103268940e+03,7.266396312415184866e+01,-1.229299739747081510e+01
2.443218004057446251e+03,7.355149317538696607e+01,-1.153217079214744878e+01
2.485553909384544568e+03,7.298334843404315109e+01,-1.172690133717108907e+01
2.528623408225151707e+03,7.298931285545387482e+01,-8.915774813580265246e+00
2.572439212234750812e+03,7.300402974850933902e+01,-1.212574341421549384e+01
2.617014253335473313e+03,7.327569815181387014e+01,-1.604091142955606131e+01
2.662361687532864835e+03,7.300843111307688105e+01,-1.253736654637370940e+01
2.708494898798786380e+03,7.301523414733632933e+01,-2.184908341748059257e+01
2.755427503021597659e+03,7.302226377120176437e+01,-6.602603062778110043e+00
2.803173352024788983e+03,7.302952714625408248e+01,-1.202172022152626241e+01
2.851746537655249540e+03,7.316811861702784370e+01,-1.340026954022694206e+01
2.901161395942375293e+03,7.304478480184944544e+01,-1.362449629412793684e+01
2.951432511329242061e+03,7.368787655541999015e+01,-1.803429507713770619e+01
3.002574720977111610e+03,7.202502707890336353e+01,-7.951814855217837597e+00
3.054603119144496759e+03,7.306961518349173446e+01,-1.374528885451995563e+01
3.107533061642137454e+03,7.359088072765891297e+01,-1.455662858867442822e+01
3.161380170365152480e+03,7.308756041050015995e+01,-1.099812748748369806e+01
3.216160337903734217e+03,7.349029777512373585e+01,-1.504439190828735562e+01
3.271889732233729319e+03,7.310670015632886987e+01,-1.775083804303657331e+01
3.328584801488505036e+03,7.485438814050151279e+01,-1.554704062109424889e+01
3.386262278813497232e+03,7.312710813839629509e+01,-1.580404327534078490e+01
3.444939187304878033e+03,7.369224351702939657e+01,-1.450091453191553548e+01
3.504632845033801914e+03,7.294330116065765424e+01,-1.160220106595564715e+01
3.565360870157708632e+03,7.421083735338963550e+01,-1.748353262864483426e+01
3.627141186120208658e+03,7.421899663301546468e+01,-2.143073111691906618e+01
3.689992026941039967e+03,7.482353099161319676e+01,-1.714732438415519766e+01
3.753931942597723719e+03,7.276262979196913250e+01,-1.872830395269107839e+01
3.818979804500451792e+03,7.254210699525603445e+01,-1.206513259200532318e+01
3.885154811061851433e+03,7.129161326780130992e+01,-1.800117380447463233e+01
3.952476493363259124e+03,7.395076310472180126e+01,-2.644334133602853854e+01
4.020964720919179854e+03,7.325101937492976845e+01,-2.031335947478278570e+01
4.090639707541632106e+03,7.326567976073394561e+01,-1.889200725930409064e+01
4.161522017306110683e+03,7.328080061326292594e+01,-1.919730735420232648e+01
4.233632570620929073e+03,7.366932841772542417e+01,-1.950682998449638461e+01
4.306992650401723040e+03,7.331247510248924470e+01,-1.587608343899274388e+01
4.381623908352959006e+03,7.338989208819944565e+01,-1.653102196299819227e+01
4.457548371358275290e+03,7.334614808585082812e+01,-1.942229826487681876e+01
4.534788447981560239e+03,7.336376797186535725e+01,-9.704936629040975760e+00
4.613366935080675830e+03,7.338192871203145273e+01,-2.117042915231950317e+01
4.693307024535807614e+03,7.361438123118519172e+01,-2.125617460050033003e+01
4.774632310094353670e+03,7.341992992983470856e+01,-2.665423128061058833e+01
4.857366794334469887e+03,7.343979956166484158e+01,-2.213765495911298586e+01
4.941534895749255156e+03,7.317298353300687097e+01,-2.144657704408347598e+01
5.027161455953693803e+03,7.328717984856042733e+01,-2.871050213725049005e+01
5.114271747016483459e+03,7.291848608777520724e+01,-2.181114614249343120e+01
5.202891478918906614e+03,7.269149092115684141e+01,-2.649061896596509413e+01
5.293046807142944999e+03,7.354844030969286450e+01,-2.392382597277779155e+01
5.384764340390878715e+03,7.357213552495009878e+01,-2.140832356901875499e+01
5.478071148438681121e+03,7.358814960167454444e+01,-2.466909275431120463e+01
5.572994770125433206e+03,7.510247079706883255e+01,-2.504831388211055554e+01
5.669563221481235814e+03,7.364744238706586543e+01,-2.658159921662367609e+01
5.767805003995943480e+03,7.301308640839812369e+01,-2.581988250677477836e+01
5.867749113031165507e+03,7.364989053645588513e+01,-2.472924208646706035e+01
5.969425046378049956e+03,7.372942531531295174e+01,-2.660885316250950439e+01
6.072862812963339820e+03,7.549214061547441190e+01,-2.700981531101637501e+01
6.178092941706295278e+03,7.092831592755004522e+01,-2.741506287944326559e+01
6.285146490529088624e+03,7.381853415705300847e+01,-2.782456742105646796e+01
6.394055055523327610e+03,7.129903407857382547e+01,-2.823829712679823345e+01
6.504850780275413854e+03,7.388212358235485056e+01,-2.865621676255157624e+01
6.617566365353496622e+03,7.416202608196432777e+01,-2.907828761112544669e+01
6.732235077958812326e+03,7.394921765166245109e+01,-3.265404111633657180e+01
6.848890761744258270e+03,7.398412109852408491e+01,-2.779689032694991013e+01
6.967567846803110115e+03,7.485693684850281215e+01,-3.036896694433565358e+01
7.088301359830807087e+03,7.405672460396326073e+01,-3.031708902572658459e+01
7.211126934462862664e+03,7.405800845197242666e+01,-3.124930494576316420e+01
7.336080821791833841e+03,7.417226499110289240e+01,-3.169526902647042732e+01
7.463199901066603161e+03,7.334760780385379064e+01,-3.214501207995044041e+01
7.592521690577014851e+03,7.229305772490694437e+01,-3.234347327707316566e+01
7.724084358727134713e+03,7.486693836262229240e+01,-3.260810713478836220e+01
7.857926735300381551e+03,7.429809004333998246e+01,-3.089949848871603422e+01
7.994088322919858911e+03,7.402706679954384583e+01,-3.398035880238727202e+01
8.132609308707274067e+03,7.488539891885477573e+01,-2.705945174062883041e+01
8.273530576143872167e+03,7.443280639054263759e+01,-2.816734707310869368e+01
8.416893717136936175e+03,7.447989128358501887e+01,-3.539284781771338118e+01
8.562741044295293250e+03,7.452808949057386201e+01,-3.188131479565372928e+01
8.711115603417616512e+03,7.582813155177935016e+01,-4.482295026053907350e+01
8.862061186197066490e+03,7.462787968665730887e+01,-4.102617033654362899e+01
9.015622343146109415e+03,7.541276260252929831e+01,-3.731952362939676959e+01
9.171844396745274935e+03,7.426516102412341525e+01,-3.470135578977904345e+01
9.330773454819764083e+03,7.478623954402374352e+01,-3.241027729963556681e+01
9.492456424147852886e+03,7.484138664737186275e+01,-3.928277504136314491e+01
9.656941024305080646e+03,7.308626792847569220e+01,-3.813762893847891888e+01
9.824275801748353842e+03,7.495528607936853405e+01,-3.978823837967733823e+01
9.994510144144082005e+03,7.790792158220409647e+01,-4.028889621789077324e+01
1.016769429494459291e+04,7.507405641881707936e+01,-4.079157678535568010e+01
1.034387936821713265e+04,7.513528984035419001e+01,-4.129615435566828552e+01
1.052311736372982159e+04,7.519776569286609913e+01,-3.865925652918445365e+01
1.070546118229900276e+04,7.558930468761245436e+01,-5.159191224634989936e+01
1.089096464140255739e+04,7.532647144210953627e+01,-4.281998151723373525e+01
1.107968249106373332e+04,7.539271297751673728e+01,-4.965072068394827198e+01
1.127167043001023922e+04,7.546022019401252123e+01,-4.384296049737265832e+01
1.146698512211331399e+04,7.532844499122062132e+01,-4.435617542102378508e+01
1.166568421311164639e+04,7.677084956319814069e+01,-4.487035901878667943e+01
1.186782634762522684e+04,7.584637780115488681e+01,-4.416541744313108353e+01
1.207347118646361560e+04,7.796137259246762596e+01,-4.590108298483869476e+01
1.228267942423475324e+04,7.581685636554848884e+01,-4.641734763196253510e+01
1.249551280725826473e+04,7.589201612046194612e+01,-4.693402993989084848e+01
1.271203415178957948e+04,7.469883263420109643e+01,-4.745099192005628197e+01
1.293230736255966076e+04,7.534345683607631372e+01,-4.393188273983978576e+01
1.315639745163604675e+04,7.612515852640407843e+01,-5.042187644210278563e+01
1.338437055761068950e+04,7.490082047366021811e+01,-4.482228064816687407e+01
1.361629396512029052e+04,7.628695087599501790e+01,-5.138762168341243353e+01
1.385223612470488297e+04,7.636974578545378733e+01,-5.003520295350515568e+01
1.409226667301052112e+04,7.645380013854268952e+01,-5.055097908743984902e+01
1.433645645334203982e+04,7.653910825036813037e+01,-5.106609034255472324e+01
1.458487753657194480e+04,7.662566373062806235e+01,-5.158040732640006354e+01
1.483760324241162380e+04,7.776876908157886703e+01,-5.522721980199505509e+01
1.509470816105113954e+04,7.680248779433256345e+01,-5.066073668365696392e+01
1.535626817517397831e+04,7.685781332265403876e+01,-5.947117504637590457e+01
1.562236048235329690e+04,7.608118962299109000e+01,-4.757253048543821450e+01
1.589306361783623288e+04,7.707688051580404931e+01,-4.678325395827469890e+01
1.616845747772301911e+04,7.546787892667984465e+01,-5.464265527699385672e+01
1.644862334254774396e+04,7.388171179374440101e+01,-5.094026741550202786e+01
1.673364390126774015e+04,7.527402895404593153e+01,-5.233249702988522500e+01
1.702360327566861088e+04,7.635825655473047391e+01,-4.645552807532130402e+01
1.731858704519217645e+04,7.683420176202601226e+01,-5.665306352977735571e+01
1.761868227219477558e+04,7.765761565630637620e+01,-5.715079081312345721e+01
1.792397752764273537e+04,7.714856826286512614e+01,-5.764637236686183996e+01
1.823456291725398842e+04,7.720392355565701337e+01,-5.278151959457733966e+01
1.855053010809155239e+04,7.796330172246663892e+01,-5.863073544661010317e+01
1.887197235561896014e+04,7.737638992678940042e+01,-5.502559029678326397e+01
1.919898453122353749e+04,7.817251302517534839e+01,-5.960546464775852371e+01
1.953166315021720948e+04,7.827869993340104315e+01,-6.008901825310502431e+01
1.987010640032225638e+04,7.740315950056393035e+01,-5.705145538931944316e+01
2.021441417065073620e+04,7.849415820119997989e+01,-6.251372178432511362e+01
2.056468808118602465e+04,7.860339751830414912e+01,-6.027762758135341414e+01
2.092103151277524739e+04,8.070539865005726199e+01,-6.199618141981944319e+01
2.128354963764138301e+04,7.939134501207539074e+01,-6.246589675536037589e+01
2.165234945042411346e+04,7.970223712293625340e+01,-7.152483105542344788e+01
2.202753979975851325e+04,7.905003851572558915e+01,-6.339645510621692637e+01
2.240923142040094899e+04,7.961924098541436479e+01,-5.699763017883925187e+01
2.279753696591166954e+04,7.927893334492382849e+01,-6.431487979513644859e+01
2.319257104190367318e+04,7.965601921665914631e+01,-6.233045342911369602e+01
2.359445023986776505e+04,7.951136178654607534e+01,-6.522086115859380584e+01
2.400329317158368940e+04,7.936807042463469486e+01,-6.563031680444910876e+01
2.441922050412755198e+04,8.105621001409292603e+01,-7.068096332241918844e+01
2.484235499548584630e+04,7.986632719994814522e+01,-6.777461243906545008e+01
2.527282153078661213e+04,7.931378313340754005e+01,-6.699456279257853453e+01
2.571074715915836350e+04,7.860099691523360832e+01,-7.887980689704789938e+01
2.615626113122775860e+04,8.022846415192341851e+01,-6.786196637057523162e+01
2.660949493726693254e+04,7.984002177783625598e+01,-7.041480240913226396e+01
2.707058234600218566e+04,8.121082332871138476e+01,-7.326815760726901772e+01
2.753965944409428266e+04,8.059730775675048164e+01,-6.913853752091152671e+01
2.801686467630426705e+04,8.185170699034433994e+01,-7.356808951018476250e+01
2.850233888635356197e+04,8.084670277211375833e+01,-6.997322021716975371e+01
2.899622535849383712e+04,8.363202139964954540e+01,-8.122630676255920434e+01
2.949866985979571109e+04,7.983724051232252350e+01,-8.083420493178067545e+01
3.000982068317114317e+04,8.122571076574716642e+01,-7.120083988941409814e+01
3.052982869114097048e+04,8.100532875876152161e+01,-7.979961245640505751e+01
3.105884736036091272e+04,8.224759603069642822e+01,-6.853716706312025053e+01
3.159703282691910499e+04,8.014126203731019871e+01,-7.430147478444401088e+01
3.214454393241856087e+04,8.173954918586281337e+01,-7.279277805593820005e+01
3.270154227085812818e+04,8.341453885575104721e+01,-6.834169013698195272e+01
3.326819223632579815e+04,8.122795482576430004e+01,-7.511490815134710886e+01
3.384466107151848701e+04,8.213074988630282292e+01,-7.395389982804793760e+01
3.443111891710247437e+04,8.414502893715371101e+01,-7.433484944346163559e+01
3.502773886192923965e+04,8.303687307337911250e+01,-6.681988651042036054e+01
3.563469699412139744e+04,8.212493533860998696e+01,-7.240858716446695098e+01
3.625217245304384414e+04,8.244968665757701842e+01,-7.545993669989853458e+01
3.688034748217547894e+04,8.197128965922692601e+01,-6.417764187765828865e+01
3.751940748289703333e+04,8.295880197487126395e+01,-7.619560315812725548e+01
3.816954106921101629e+04,8.249486428997036569e+01,-7.140468178341397731e+01
3.883094012340974587e+04,8.460631751304042325e+01,-7.692017210136079086e+01
3.950379985270807811e+04,8.333005164911371310e+01,-7.727841469589357359e+01
4.018831884685738623e+04,8.346538761897292602e+01,-7.763402959795433844e+01
4.088469913675786665e+04,8.360109176634637151e+01,-7.798706876480365224e+01
4.159314625408689608e+04,8.373715168629948380e+01,-8.210551132042050426e+01
4.231386929195935227e+04,8.387355518600431026e+01,-7.920490992623187765e+01
4.304708096664120967e+04,8.401029028216133554e+01,-8.513220171087728261e+01
4.379299768032984866e+04,8.584987914145388288e+01,-8.608553015491582983e+01
4.455183958502493624e+04,8.428470836048597903e+01,-7.971553795525957753e+01
4.532383064750375343e+04,8.442236839593576292e+01,-7.657611855101094989e+01
4.610919871542383771e+04,8.614463227243243182e+01,-6.928387475136717910e+01
4.690817558457049017e+04,8.356845914875104597e+01,-8.072530672180165823e+01
4.772099706726965815e+04,8.483701892298660141e+01,-8.752549871818726501e+01
4.854790306198627513e+04,8.497575657581964492e+01,-8.138811023789335763e+01
4.938913762412855431e+04,8.251871012277131001e+01,-8.611330150733020616e+01
5.024494903807922674e+04,8.604226812617838505e+01,-8.204320069798858128e+01
5.111558989047488285e+04,8.539338583014267670e+01,-8.236801470705319161e+01
5.200131714475515764e+04,8.553303402951665646e+01,-7.891819288403567612e+01
5.290239221700360940e+04,8.422411434051844026e+01,-8.301250855234549419e+01
5.381908105310283281e+04,8.581292922075583363e+01,-8.333232153306099121e+01
5.475165420722650015e+04,8.565120285212204010e+01,-8.365060158158428294e+01
5.570038692169149726e+04,8.412094457786382407e+01,-8.560126867513638160e+01
5.666555920819369931e+04,8.623412685618795592e+01,-9.288477117158447527e+01
5.764745593045146961e+04,8.637485042934994794e+01,-8.065596033301807211e+01
5.864636688828111801e+04,8.512402832053427915e+01,-8.004030525857950806e+01
5.966258690312927502e+04,8.568498740234534239e+01,-8.441318953167963457e+01
6.069641590508732770e+04,8.679786896443360433e+01,-8.566366277386603656e+01
6.174815902141365950e+04,8.693912868572547836e+01,-8.970566452733838503e+01
6.281812666658961825e+04,8.984830621937611284e+01,-8.614989895989853608e+01
6.390663463393685379e+04,8.722197720223105932e+01,-8.510605494372283886e+01
6.501400418881996302e+04,8.653251142124913997e+01,-9.023512402034033641e+01
6.614056216346767906e+04,8.750520875852977554e+01,-8.707023528387834688e+01
6.728664105343293340e+04,8.764694757608179998e+01,-8.737553297701396104e+01
6.845257911572858575e+04,8.778875757294689208e+01,-8.785138343044285136e+01
6.963872046866004530e+04,8.692878916700172454e+01,-8.536772110148289983e+01
7.084541519339002843e+04,8.755508654061796392e+01,-8.828798795776577890e+01
7.207301943726241007e+04,8.787119231735304936e+01,-8.383441017081936764e+01
7.332189551891654264e+04,8.835654892607657018e+01,-9.596989901882859897e+01
7.459241203522298019e+04,8.849859489338375340e+01,-8.853757033709361224e+01
7.588494397007231601e+04,9.019976940966169821e+01,-8.619713478540346330e+01
7.719987280504892988e+04,9.010030302572063476e+01,-8.324412453358668529e+01
7.853758663202257594e+04,8.892484237238736000e+01,-9.358861330819840418e+01
7.989848026769091666e+04,8.906693529465357528e+01,-8.068007717119968447e+01
8.128295537010689441e+04,8.886808204849404547e+01,-9.070871513096086858e+01
8.269142055722521036e+04,8.880217705047381571e+01,-9.101133522180235502e+01
8.412429152750299545e+04,8.949313581869814982e+01,-9.131420400801059145e+01
8.558199118259028182e+04,8.937041792499216797e+01,-9.161739410155799135e+01
8.706494975214637816e+04,8.977712582373106898e+01,-9.628968388529109745e+01
8.857360492081906705e+04,8.991905405479060676e+01,-9.222502834190609633e+01
9.010840195742416836e+04,9.006092717182781371e+01,-1.018102242987870625e+02
9.166979384636342002e+04,9.020273716869292002e+01,-9.283481732112964835e+01
9.325824142131957342e+04,9.034447598624495868e+01,-9.386880750245899208e+01
9.487421350126821199e+04,9.007273522348474160e+01,-9.344733858744817212e+01
9.651818702884609229e+04,9.062770754254366068e+01,-9.375480366022611634e+01
9.819064721111839754e+04,9.076918383911922206e+01,-9.639913958683608541e+01
9.989208766278190888e+04,9.034140684196700022e+01,-9.437250072445927174e+01
1.016230105518548953e+05,9.105181578034112988e+01,-9.468287527105815116e+01
1.033839267478851689e+05,9.185609713590986303e+01,-9.932103738235748835e+01
1.051753559727326938e+05,9.133396357303611524e+01,-9.530703085313149359e+01
1.069978269539594621e+05,9.147483431542477206e+01,-9.562095279855749652e+01
1.088518775808807404e+05,9.071425216498377608e+01,-9.296041780878320537e+01
1.107380550633190724e+05,9.175612534783394381e+01,-9.625283477483320382e+01
1.126569160931092920e+05,9.387486553336860595e+01,-9.672427233969338545e+01
1.146090270084022195e+05,9.334236734942805924e+01,-9.689056282370525253e+01
1.165949639608152793e+05,9.217679971173041054e+01,-9.409770485889093550e+01
1.186153130854795891e+05,9.253029584282420217e+01,-9.753468524151867314e+01
1.206706706740334921e+05,9.245629891463204331e+01,-9.785931356153494676e+01
