Frequency (Hz), Gain (dB), Phase (deg)
3.624669483933459560e+03,5.365677908370745541e+01,-3.743838115595295779e+00
3.674627758945426194e+03,5.636045013266565462e+01,-3.795293954916487245e+00
3.725274601357323263e+03,5.543977758338419903e+01,-5.246373816986116267e+00
3.776619501590196705e+03,5.495170563747406334e+01,-3.421703026071850395e+00
3.828672080870125683e+03,5.408139593088128549e+01,-5.095715178369287557e+00
3.881442093031118475e+03,5.484858021925585092e+01,-4.008243845502435398e+00
3.934939426342797105e+03,5.408025921057767249e+01,-4.063311050085111731e+00
3.989174105363333638e+03,5.407966719747658857e+01,-2.246693158478993269e+01
4.044156292817863232e+03,5.456960780988282522e+01,-4.175710184490376342e+00
4.099896291502852364e+03,5.159834207738499146e+01,-4.233062338989738826e+00
4.156404546216645940e+03,5.518084518523954074e+01,-4.291196578843955223e+00
4.213691645716692619e+03,5.407713111704290299e+01,-1.136041434891629365e+01
4.271768324703678445e+03,5.416954960849722056e+01,1.917795285043704112e+00
4.330645465833071285e+03,4.986032516267204073e+01,-5.742891312263873616e-01
4.390334101754329822e+03,5.458851606397303158e+01,-5.102282103319799589e-01
4.450845417178278694e+03,5.407430328021742127e+01,-4.593968665986543520e+00
4.512190750972914429e+03,5.301879075382834117e+01,-4.657019019233159085e+00
4.574381598288166060e+03,5.764755006743298793e+01,-4.720927225922670445e+00
4.637429612709873254e+03,5.407197101862980304e+01,-4.785704646038815291e+00
4.701346608443500372e+03,5.407115034661437392e+01,-4.851362776992674597e+00
4.766144562527942071e+03,5.259820715123294832e+01,1.079074602664045202e-01
4.831835617079804251e+03,5.316144556621321016e+01,-7.347740535037933007e+00
4.898432081568680587e+03,5.406855013863140869e+01,-2.242355190284141653e+00
4.965946435123715673e+03,5.406763522026960089e+01,-1.095691064602756626e+01
5.034391328872036866e+03,5.406669510853839711e+01,-1.469633230795883172e+01
5.103779588309334940e+03,5.230379315325426859e+01,-4.326965263097087622e+00
5.174124215703202026e+03,5.527009167408565560e+01,-5.336624745255971192e+00
5.245438392529511475e+03,5.396922743117529109e+01,2.473844107784009871e+00
5.317735481942458136e+03,5.406266868694059013e+01,-5.483884443732561564e+00
5.391029031278564617e+03,5.571938977757901057e+01,1.964044430630734972e+00
5.465332774595276533e+03,5.406048552633544801e+01,-1.443287246050993566e+00
5.540660635244470541e+03,5.175565228134387041e+01,-1.041437135382876633e-01
5.617026728481512691e+03,5.342030287191096249e+01,-5.790551258551905001e+00
5.694445364110189075e+03,5.405698055039731997e+01,-5.869826056985084861e+00
5.772931049164186334e+03,5.498777225546624692e+01,-5.950171226976804562e+00
5.852498490625433078e+03,5.405448049043211256e+01,-6.031600601259444971e+00
5.933162598180006171e+03,5.167442833614867226e+01,-1.069796382010445157e+01
6.014938487011924735e+03,5.548847981499217497e+01,2.066382935233471052e+00
6.097841480635522203e+03,5.405046712677248166e+01,-7.013455285892542079e+00
6.181887113766843868e+03,5.737478247498427208e+01,-6.368442163296132996e+00
6.267091135234568355e+03,5.404760472650369252e+01,-1.748596643141592466e+01
6.353469510931141485e+03,5.404611441562946084e+01,-5.360725640413345872e+00
6.441038426804479059e+03,5.404458327289645325e+01,-1.523225315993936135e+01
6.529814291891009816e+03,5.469468198940149506e+01,-9.994827083735392748e+00
6.619813741390424184e+03,5.078742604547326778e+01,-6.815612723475155121e+00
6.711053639782895516e+03,5.409011173001979245e+01,-6.908678853645644935e+00
6.803551083989166727e+03,5.403802786941464831e+01,-7.540525581322666149e+00
6.897323406574299952e+03,5.466708502985807172e+01,-7.098566507398339276e+00
6.992388178995468479e+03,5.453870009769102722e+01,-7.195419577773059849e+00
7.088763214894629527e+03,5.403262552249805850e+01,-7.293566768267978340e+00
7.186466573436470753e+03,5.376840957454146519e+01,-7.393024241728071821e+00
7.285516562692431762e+03,5.402877353031711039e+01,-7.493808316113839574e+00
7.385931743071366327e+03,5.402676833498908593e+01,-7.595935463976221769e+00
7.487730930797457404e+03,5.260791524162618771e+01,-1.081035179145831115e+01
7.590933201436061609e+03,5.402259240586879940e+01,-7.804285639381619788e+00
7.695557893468187103e+03,5.466811183374069572e+01,-4.700419960781466955e+00
7.801624611914246998e+03,5.341377395734569689e+01,-6.396456453367679984e+00
7.909153232007672159e+03,5.269446192574079646e+01,-8.127304576805997272e+00
8.018163902919282009e+03,5.401353604301842637e+01,-8.237844651968863730e+00
8.128677051532858968e+03,5.401111589824875381e+01,-5.307109361334791942e-01
8.240713386272889693e+03,5.399390553931444714e+01,-8.463330404765027737e+00
8.354293900984928769e+03,5.400607655598191315e+01,-8.578311579735133918e+00
8.469439878869588938e+03,5.400345381799726141e+01,-1.771383611865847740e+01
8.586172896470599881e+03,5.400075993360209026e+01,-1.320162862684857075e+01
8.704514827717992375e+03,5.399799301875252411e+01,-8.932424276222644011e+00
8.824487848026850770e+03,5.900629783896172853e+01,-9.053579038202249407e+00
8.946114438452708782e+03,5.399223232361089941e+01,-7.370307965587258536e+00
9.069417389904088850e+03,5.385233222099055439e+01,-1.289618706134696424e-01
9.194419807413180024e+03,5.398615569375876078e+01,-5.504262385043377392e+00
9.321145114465374718e+03,5.535009832653327777e+01,-1.466179132513906147e+01
9.449617057388450121e+03,5.397974628105854578e+01,-9.683567707999239715e+00
9.579859709802231009e+03,5.511165724622879480e+01,1.059913203414421190e+00
9.711897477129628896e+03,5.191243114448428742e+01,-5.525045013815391926e+00
9.845755101169861518e+03,5.396946925112502669e+01,-1.008161509057350180e+01
9.981457664734609352e+03,4.871934599225211571e+01,2.735611020096255785e+00
1.011903059634821875e+04,5.396214853755589758e+01,-1.774438448583282479e+01
1.025849967501253741e+04,5.395833997472384880e+01,-1.049533995728458358e+01
1.039989103503750994e+04,5.438403546698129531e+01,-2.475331560708756129e+01
1.054323117093841756e+04,5.621243291042159029e+01,-1.568393481982426607e+01
1.068854694240039680e+04,5.394629023691705072e+01,-4.892249066170863969e+00
1.083586557931161042e+04,5.394205660050724305e+01,-1.107227870351243837e+01
1.098521468686566368e+04,5.385279167646894649e+01,-1.579576547960799004e+01
1.113662225073446098e+04,5.393324678464226452e+01,-2.272912669425758736e+01
1.129011664231214854e+04,5.392866471772281045e+01,-1.760388642171250595e+01
1.144572662403156573e+04,5.563076935603388051e+01,-3.983844526286777210e-01
1.160348135475381423e+04,5.391913102662288537e+01,-1.270685656375900940e+01
1.176341039523227118e+04,5.391417309315136208e+01,-1.199451295398622364e+01
1.192554371365166480e+04,5.413212027234377643e+01,-6.011378052951865669e+00
1.208991169124373664e+04,5.350897306572169043e+01,-1.102891359592836906e+01
1.225654512798018186e+04,5.389849554219155436e+01,-1.248238473941089666e+01
1.242547524834404976e+04,5.377722744398842991e+01,-1.264910782017145863e+01
1.259673370718083243e+04,5.591584945766320658e+01,-1.281791436998295453e+01
1.277035259562991996e+04,5.388153982526316810e+01,-1.374367281011212150e+01
1.294636444713808123e+04,5.387558702952320999e+01,-8.577807807203150503e+00
1.312480224355567407e+04,5.182677875279773616e+01,-1.167262657974440643e+01
1.330569942131701828e+04,5.386320734016661049e+01,-4.784831240561846499e-01
1.348908987770571002e+04,5.319219047380684628e+01,-1.369390847382986465e+01
1.367500797720654009e+04,5.567387575756541196e+01,-1.387564069761801733e+01
1.386348855794479823e+04,5.080095531481263293e+01,-7.206616398726346517e+00
1.405456693821451154e+04,5.383643944640161294e+01,-2.587155641156614649e+01
1.424827892309635899e+04,5.512535134894133648e+01,-2.198559460951631195e+01
1.444466081116710302e+04,5.401224375967863267e+01,-1.536259766639570046e+01
1.464374940130132927e+04,5.381447305960266192e+01,-1.481806381259292493e+01
1.484558199956695717e+04,5.380676712314568277e+01,-8.680713790718588285e-01
1.505019642621592902e+04,5.290671508461151262e+01,-1.521115287474735389e+01
1.525763102277094549e+04,5.379075146985601208e+01,-1.541122822762497968e+01
1.546792465921015355e+04,5.378243206572454227e+01,-1.561368240032387789e+01
1.568111674125086392e+04,5.377389832506027290e+01,-1.581853380997202407e+01
1.589724721773337842e+04,5.376514516294703583e+01,-1.602580062268606653e+01
1.611635658810689165e+04,5.259331671285970344e+01,-9.558007195887228136e+00
1.633848591001842578e+04,5.425432351737678971e+01,-2.541656797023652103e+01
1.656367680700634810e+04,5.373751682555952414e+01,-1.666227098135096796e+01
1.679197147630010295e+04,5.372783315959744499e+01,-1.687937538579016561e+01
1.702341269672711496e+04,5.589831625215105504e+01,-1.709898158968456272e+01
1.725804383672898257e+04,5.370772116135616869e+01,-1.058373143598570820e+01
1.749590886248800234e+04,5.369728136439671573e+01,-1.754576400785799706e+01
1.773705234616584494e+04,5.386701600559513281e+01,-2.319606377149591481e+01
1.798151947425549224e+04,5.367560475313366908e+01,-1.174488413440358237e+01
1.822935605604861121e+04,5.366435586546611347e+01,-1.865178964140892504e+01
1.848060853221940852e+04,5.365282503815907234e+01,-1.847003793347883160e+01
1.873532398352703967e+04,5.364100598061425984e+01,-2.537349689503352579e+01
1.899355013963758756e+04,5.362889230099109028e+01,-1.945719879175214828e+01
1.925533538806798242e+04,5.141547966453653373e+01,-2.610445630699830488e+01
1.952072878325303827e+04,5.360375500419826977e+01,-1.943600546802205997e+01
1.978978005573742485e+04,5.407784367970266004e+01,-1.392293130728698713e+01
2.006253962149456856e+04,5.030929567875034536e+01,-2.552177740230674274e+01
2.033905859137356310e+04,5.356367382565893820e+01,-2.436042501706495500e+01
2.061938878067669430e+04,5.204071663926787039e+01,-2.514531075353060174e+01
2.090358271886873263e+04,5.514195222565644627e+01,-2.496524903218373481e+01
2.119169365942030345e+04,5.226665423951570233e+01,-1.866418751553436906e+01
2.148377558978648449e+04,5.232043786465462176e+01,-1.730512642360485742e+01
2.177988324152338100e+04,5.349007379423365904e+01,-1.991993386218388551e+01
2.208007210054387542e+04,5.154183838615085023e+01,-2.176562570158391097e+01
2.238439841751498170e+04,5.468498213624408777e+01,-1.848715387362454265e+01
2.269291921839807037e+04,5.351011494950802927e+01,-2.231313275708600230e+01
2.300569231513482373e+04,5.342455056024397919e+01,-2.614721132954785787e+01
2.332277631648022725e+04,5.442280151013949308e+01,-2.287156215822435001e+01
2.364423063898488181e+04,5.338940731672995099e+01,-2.315487651982658690e+01
2.397011551812893231e+04,5.337121282371909103e+01,-2.344092402470063163e+01
2.430049201960894425e+04,5.463193587405214657e+01,-2.968482828317468858e+01
2.463542205078080951e+04,5.432634458674344557e+01,-2.402121235115087927e+01
2.497496837226035859e+04,5.410535052101066356e+01,-2.086476747829508938e+01
2.531919460968340718e+04,5.329409459421034967e+01,-2.461240408403883606e+01
2.566816526562840227e+04,5.437005923349178005e+01,-2.092098631901345129e+01
2.602194573170314470e+04,5.325281663484502559e+01,-2.169092076620031762e+01
2.638060230079808753e+04,5.236947294382678564e+01,-1.533172907791608353e+01
2.674420217950879305e+04,5.320963739771397627e+01,-2.582731488956509480e+01
2.711281350072907298e+04,5.318731374449442484e+01,-2.613777011658395111e+01
2.748650533641823495e+04,5.344149885403245293e+01,-2.645089456750441670e+01
2.786534771054397424e+04,5.627104510651839320e+01,-2.676667508900436587e+01
2.824941161220397771e+04,5.056223921535208632e+01,-8.000551690320076403e+00
2.863876900892783306e+04,5.309292726062808043e+01,-3.340622112144252043e+01
2.903349286016283804e+04,5.372259906310656419e+01,-3.624235487900732977e+01
2.943365713094532475e+04,5.228674784108734741e+01,-2.805604781546417570e+01
2.983933680576080224e+04,5.301655149754633811e+01,-2.838486409230766228e+01
3.025060790259448549e+04,5.298998322688379403e+01,-2.871622885192745400e+01
3.066754748717613620e+04,5.377431486717379983e+01,-2.905011920231074285e+01
3.109023368742087405e+04,5.293513083776857542e+01,-2.938651078959616569e+01
3.151874570806909105e+04,5.055786563192837946e+01,-2.972537778465046543e+01
3.195316384552839736e+04,5.287793392464127606e+01,-2.753328668056615669e+01
3.239356950291954490e+04,5.264836558160549629e+01,-2.669439238261814040e+01
3.284004520533032337e+04,5.281832493164449716e+01,-3.378248954493479772e+01
3.329267461527935666e+04,5.278759500818789263e+01,-3.110503101234187540e+01
3.375154254839339410e+04,5.275623711113508563e+01,-3.771547878938682175e+01
3.421673498930000642e+04,5.272424306445734032e+01,-3.180892839290076068e+01
3.468833910774007381e+04,5.269160477443404744e+01,-3.216427406842568359e+01
3.516644327490180876e+04,5.265831423790204724e+01,-4.599649390990375508e+01
3.565113707998048631e+04,5.474721279754065506e+01,-3.288156987349798044e+01
3.614251134696556983e+04,5.126989274678478381e+01,-3.324343965885807251e+01
3.664065815165999084e+04,5.255445065149308448e+01,-3.707579019852828139e+01
3.714567083893365634e+04,5.288391829870334249e+01,-3.121258208242271337e+01
3.765764404021471273e+04,5.248180514146793030e+01,-3.434142300781164892e+01
3.817667369122229138e+04,5.244443918841547259e+01,-3.471139083782516366e+01
3.870285704994290427e+04,5.213854252338151696e+01,-3.508326607650637641e+01
3.923629271485526260e+04,5.182732865621652962e+01,-3.545699901095118634e+01
3.977708064340636338e+04,5.232808344053092497e+01,-3.583253853007593648e+01
4.032532217074142682e+04,5.215171947496880023e+01,-3.620983215022071278e+01
4.088112002869284333e+04,5.224689708747992256e+01,-3.810194931100753735e+01
4.144457836503040016e+04,5.220519981539602128e+01,-3.696946506730751025e+01
4.201580276297688397e+04,5.528984481634896753e+01,-3.268978330132925691e+01
4.259490026099303213e+04,5.471613459399172541e+01,-3.773545157286920926e+01
4.318197937283435022e+04,5.207561955794560760e+01,-4.745312303943471477e+01
4.377715010788522341e+04,5.203091121156675314e+01,-3.850732557631512520e+01
4.438052399177284678e+04,5.068223626502206969e+01,-3.889531960070996774e+01
4.499221408726530353e+04,5.186186873500533778e+01,-4.194545008793012641e+01
4.561233501545808394e+04,5.189216886522224570e+01,-3.851469238264436257e+01
4.624100297725177370e+04,5.450697908602937503e+01,-3.216496136389194049e+01
4.687833577512647753e+04,4.945073556979220086e+01,-4.045954526879866364e+01
4.752445283521649253e+04,5.174640448129976988e+01,-3.929036244821082846e+01
4.817947522968830162e+04,5.116665930534475848e+01,-4.804855299599191198e+01
4.884352569942796254e+04,5.173624366341958591e+01,-4.164375273139278733e+01
4.951672867704071541e+04,5.159351198386545434e+01,-4.664422405441133890e+01
5.019921031016761845e+04,5.256726408422446895e+01,-3.960813156938749557e+01
5.089109848512402823e+04,5.175241134537293419e+01,-4.283539990873646275e+01
5.159252285086285701e+04,5.124530772594421535e+01,-5.116144353243200982e+01
5.230361484326906066e+04,5.121044425051672278e+01,-4.363303942125996571e+01
5.302450770978896617e+04,5.132263326947944648e+01,-3.480008245713853654e+01
5.375533653439813497e+04,5.056407112634909851e+01,-4.443258635635854858e+01
5.449623826291434671e+04,5.572957614647501146e+01,-4.483289685051955331e+01
5.524735172865905770e+04,5.115038523359478262e+01,-4.504458007654621809e+01
5.600881767847239098e+04,5.109134271460789734e+01,-4.563423352747525286e+01
5.678077879908738396e+04,5.103148643424486863e+01,-4.603511605863735667e+01
5.756337974386652786e+04,5.075543717382642228e+01,-4.643604560821923144e+01
5.835676715990800585e+04,5.001171113462304874e+01,-4.683695044063126289e+01
5.916108971552491857e+04,5.084703807207975501e+01,-4.723775898060166156e+01
5.997649812810327421e+04,4.969500530117132797e+01,-4.763839988181470630e+01
6.080314519234453473e+04,5.072001459353375452e+01,-3.949529126172836868e+01
6.164118580889622535e+04,5.065528957644033881e+01,-4.843889493591404261e+01
6.249077701337821054e+04,5.058975822348395468e+01,-5.359211852018789557e+01
6.335207800580909679e+04,5.052342278971617873e+01,-4.232009482461429428e+01
6.422525018043706223e+04,5.356258717372783451e+01,-5.316245820028466085e+01
6.511045715598306560e+04,5.038835014883702712e+01,-5.003477536229529932e+01
6.600786480630034930e+04,5.089489616749248313e+01,-5.043227845747784954e+01
6.691764129145639890e+04,5.025009543464093298e+01,-5.143511713521775874e+01
6.783995708924406790e+04,5.216263716890840385e+01,-5.410173877019234112e+01
6.877498502712562913e+04,5.010868687497343643e+01,-5.162019040154822846e+01
6.972290031461839681e+04,5.003680990080058422e+01,-5.201441046839831728e+01
7.068388057612617558e+04,5.197543497064577167e+01,-5.240764850718484524e+01
7.165810588422309957e+04,4.989073282326818770e+01,-5.279984198474958390e+01
7.264575879339697713e+04,4.981654237029712107e+01,-6.992650320407761910e+01
7.364702437425624521e+04,4.974159080745322825e+01,-5.187295183554649469e+01
7.466209024820977356e+04,5.299057077692019391e+01,-5.396954615389392984e+01
7.569114662262452475e+04,4.882414703282330493e+01,-5.435695829122106915e+01
7.673438632646659971e+04,4.868592266450794170e+01,-5.474303027102447317e+01
7.779200484643493837e+04,5.036773733752166038e+01,-7.175761133875356279e+01
7.886420036359227379e+04,4.936537606143087231e+01,-5.551093346730165479e+01
7.995117379050099407e+04,5.196110358028865051e+01,-5.589265789033322562e+01
8.105312880887163919e+04,4.919610062686128060e+01,-5.627282863314341199e+01
8.217027190772867471e+04,4.843922466333867760e+01,-6.321973844989440039e+01
8.330281242210380151e+04,4.938783451819631409e+01,-4.599444894110985871e+01
8.445096257226246234e+04,4.461548010420226262e+01,-5.740352698514821128e+01
8.561493750346970046e+04,4.886858787164555196e+01,-5.777699853174031119e+01
8.679495532630554226e+04,4.878498333632831674e+01,-5.814868155310302456e+01
8.799123715753541910e+04,4.764937365879369224e+01,-5.699817774739948106e+01
8.920400716154369002e+04,4.861575506000475144e+01,-6.188902214899305676e+01
9.043349259233937482e+04,4.853014679718683055e+01,-6.104778574661287394e+01
9.167992383613872516e+04,4.844388628786019524e+01,-5.028740129518995161e+01
9.294353445453685708e+04,4.835698153518801945e+01,-5.997883645321680035e+01
9.422456122827323270e+04,4.826944063289089826e+01,-5.188054573857593255e+01
9.552324420160047885e+04,5.089527635907766978e+01,-6.069701166844318152e+01
9.683982672726571036e+04,4.899525966574962865e+01,-6.991480722587036212e+01
9.817455551210980047e+04,4.800308315129453263e+01,-6.140684943674222751e+01
9.952768066329693829e+04,4.791308011231638631e+01,-7.026467780316485801e+01
1.008994557351813855e+05,4.787132056993934270e+01,-6.210811612421277772e+01
1.022901377768184029e+05,4.630591805701628516e+01,-6.245546911797873690e+01
1.036999873801319336e+05,4.763953725613736623e+01,-7.156082983990189916e+01
1.051292687287453009e+05,4.754720672744998211e+01,-6.314349551845894837e+01
1.065782496474847721e+05,4.745431564533405577e+01,-6.348412594628039329e+01
1.080472016525666404e+05,4.872050932158103365e+01,-6.382247505052293235e+01
1.095364000024737470e+05,4.726688609248196826e+01,-5.877817055558392667e+01
1.110461237495354871e+05,4.717236476915465460e+01,-5.770847284440446856e+01
1.125766557922175998e+05,4.707731717432272234e+01,-6.482366427146185117e+01
1.141282829281326267e+05,4.698175186461469366e+01,-6.261689107675659471e+01
1.157012959077822452e+05,4.907321767845034799e+01,-6.769385138068676611e+01
1.172959894890379073e+05,4.943352588493434041e+01,-7.388919588822822959e+01
1.189126624923745112e+05,4.669203491279527185e+01,-6.463073742731583593e+01
1.205516178568654141e+05,4.659448387124947999e+01,-7.081671643781909609e+01
1.222131626969469944e+05,4.675984702812841931e+01,-5.799983611833731345e+01
1.238976083599680132e+05,5.051536325764627833e+01,-6.551821996117504909e+01
1.256052704845309345e+05,4.629901232340744599e+01,-7.325613828869474276e+01
1.273364690596374712e+05,4.597799466371299104e+01,-6.769968933131923450e+01
1.290915284846503928e+05,4.742551492656759393e+01,-6.800727955498312838e+01
