Frequency (Hz), Gain (dB), Phase (deg)
1.336144145086066374e+03,7.621610605440601205e+01,-1.696752470803192381e+01
1.349732591402150547e+03,7.581869481190101112e+01,-1.711894659061021784e+01
1.363459230797152031e+03,7.582099247603731840e+01,-1.727133335753240218e+01
1.377325468680238146e+03,7.617669661974989026e+01,-1.742468056177343882e+01
1.391332724753446655e+03,7.616309571433636449e+01,-1.606053975543585821e+01
1.405482433157030073e+03,7.479292869680296008e+01,-1.799783318691889633e+01
1.419776042616303812e+03,7.507478627226419121e+01,-1.731168262570509953e+01
1.434215016589962261e+03,7.491641412541403611e+01,-1.966193682679876176e+01
1.448800833419927812e+03,7.856939076660238186e+01,-1.744518283637807343e+01
1.463534986482699651e+03,7.393705698261135240e+01,-1.829098907483165348e+01
1.478418984342265958e+03,7.607637216431189131e+01,-1.829196397751464431e+01
1.493454350904546800e+03,7.582756731342621492e+01,-1.893487688457503282e+01
1.508642625573430905e+03,7.633754946916948825e+01,-1.884711937897478506e+01
1.523985363408383819e+03,7.602956112281549395e+01,-1.900974901069151102e+01
1.539484135283658361e+03,7.582347244359903016e+01,-1.917326648717772031e+01
1.555140528049140812e+03,7.599701017957086435e+01,-1.933766288878996065e+01
1.570956144692808493e+03,7.598032063031044459e+01,-1.950292888216561238e+01
1.586932604504865367e+03,7.596335009503309266e+01,-1.911980175774199964e+01
1.603071543243521319e+03,7.594609485136402327e+01,-1.983603020682151197e+01
1.619374613302482430e+03,7.706157245184880367e+01,-2.023941105759388392e+01
1.635843483880119720e+03,7.586469706319654449e+01,-2.043073887847117476e+01
1.652479841150383663e+03,7.610180231701767184e+01,-2.034194636315627136e+01
1.669285388435431059e+03,7.664118823478213471e+01,-2.111096034477166938e+01
1.686261846380031784e+03,7.585541665446960735e+01,-2.002826179865802203e+01
1.703410953127734047e+03,7.570745869605718781e+01,-2.014406867751036501e+01
1.720734464498817943e+03,7.581702051497589423e+01,-2.102770227052994656e+01
1.738234154170080274e+03,7.434209514873555236e+01,-1.959749925937670767e+01
1.755911813856417893e+03,7.577736446563640982e+01,-2.079876355096589080e+01
1.773769253494288023e+03,7.575705440440208349e+01,-2.041982690724104543e+01
1.791808301427005745e+03,7.567040251011916041e+01,-1.843594555843825233e+01
1.810030804591953256e+03,7.510835727134319484e+01,-2.278810206858231879e+01
1.828438628709666318e+03,7.569415003084669991e+01,-2.047864947663003932e+01
1.847033658474869981e+03,7.483314649166909760e+01,-2.291415935903773615e+01
1.865817797749431065e+03,7.565053022099195346e+01,-2.243433713211462788e+01
1.884792969757297897e+03,7.562820373192721490e+01,-2.273765776301408081e+01
1.903961117281405450e+03,7.730914230624536287e+01,-2.279258099215413580e+01
1.923324202862582297e+03,7.498962423674043976e+01,-2.297259434470802120e+01
1.942884209000499823e+03,7.555911196998789592e+01,-2.315317663751653399e+01
1.962643138356636200e+03,7.553536455888246337e+01,-2.306577933128055946e+01
1.982603013959335158e+03,7.551125239680455081e+01,-2.351596901482646729e+01
2.002765879410919752e+03,7.605911849799765889e+01,-2.271838964417343476e+01
2.023133799096942766e+03,7.546191869027073551e+01,-2.388079504448585411e+01
2.043708858397534186e+03,7.543668961772526416e+01,-2.406391751797784551e+01
2.064493163900930540e+03,7.655180149674920642e+01,-2.405315692425375573e+01
2.085488843619141790e+03,7.404583674042604002e+01,-2.344512417500957113e+01
2.106698047205844432e+03,7.600073053381541399e+01,-2.461585554999421177e+01
2.128122946176467394e+03,7.533193819477709496e+01,-2.424379919561591024e+01
2.149765734130519377e+03,7.774299590841833663e+01,-2.399755548241432024e+01
2.171628626976194028e+03,7.386583789710192605e+01,-2.408204954517990970e+01
2.193713863157232481e+03,7.613569795726063205e+01,-2.594188576231059784e+01
2.216023703882122390e+03,7.522087444201926587e+01,-2.554290251045325988e+01
2.238560433355597524e+03,7.653079099018337672e+01,-2.572916055180546380e+01
2.261326359012522516e+03,7.481115374432231135e+01,-2.584709898183928090e+01
2.284323811754126382e+03,7.513329595497646096e+01,-2.717889189081228096e+01
2.307555146186668026e+03,7.155102598995773633e+01,-2.628915795559882085e+01
2.331022740862496448e+03,7.520652288023975984e+01,-2.647613977391923612e+01
2.354728998523597056e+03,7.305949372332582925e+01,-2.666323256887038795e+01
2.378676346347589515e+03,7.501063894126912146e+01,-2.775663597809020189e+01
2.402867236196230351e+03,7.497890128213290950e+01,-2.703763503044461203e+01
2.427304144866462138e+03,7.333440424504676969e+01,-2.742779492114018680e+01
2.451989574343984259e+03,7.491411510325875156e+01,-2.610805793903065819e+01
2.476926052059439371e+03,7.488106025867786286e+01,-2.759933411187633112e+01
2.502116131147165106e+03,7.438979571317970851e+01,-2.804357903002504315e+01
2.527562390706616043e+03,7.303473833960850925e+01,-2.830553090649787151e+01
2.553267436066420032e+03,7.488798027285747594e+01,-2.713549155352282227e+01
2.579233899051117533e+03,7.658224541906714933e+01,-2.796701162053900447e+01
2.605464438250630792e+03,7.218314836487893160e+01,-3.078149160056261380e+01
2.631961739292468792e+03,7.467327523068092887e+01,-2.872000212577891887e+01
2.658728515116691597e+03,7.496291161583593521e+01,-2.711789380416295003e+01
2.685767506253667761e+03,7.498621605567480231e+01,-2.843691348111493866e+01
2.713081481104684826e+03,7.392547638431524604e+01,-2.948617925113626725e+01
2.740673236225370601e+03,7.607140864423115545e+01,-2.936253489860630594e+01
2.768545596612042573e+03,7.448742490214839052e+01,-2.964692786415273673e+01
2.796701415990924488e+03,7.444883788840336081e+01,-2.983114622610277777e+01
2.825143577110345177e+03,7.440977281964593715e+01,-3.001489412539581636e+01
2.853874992035884588e+03,7.437022736548894386e+01,-3.019813606161230624e+01
2.882898602448517522e+03,7.615093537549194025e+01,-3.038083628047980156e+01
2.912217379945807352e+03,7.479848622452264806e+01,-3.189274284823630978e+01
2.941834326346161106e+03,7.647334458260945667e+01,-3.225266699770302381e+01
2.971752473996164554e+03,7.420719742555347409e+01,-3.092532558520111152e+01
3.001974886081041404e+03,7.384354698357991253e+01,-3.110549682227901158e+01
3.032504656938302560e+03,7.412274450331602793e+01,-3.114542416973609917e+01
3.063344912374535397e+03,7.407977677064141631e+01,-3.146363097521379615e+01
3.094498809985465414e+03,7.403631246063453375e+01,-3.264219580135677035e+01
3.125969539479224295e+03,7.414866010300275434e+01,-3.449969184051688131e+01
3.157760323002952191e+03,7.394788734777981176e+01,-3.199475478894534675e+01
3.189874415472687815e+03,7.449385813412922630e+01,-3.217002611252408428e+01
3.222315104906617762e+03,7.385745636126193858e+01,-3.305067406586707790e+01
3.255085712761741433e+03,7.381148497950893272e+01,-3.251768874322305436e+01
3.288189594273916100e+03,7.278732521730096039e+01,-3.269000479238501100e+01
3.321630138801410340e+03,7.371802369921259412e+01,-3.286126042991735119e+01
3.355410770171899912e+03,7.367053132128411619e+01,-2.907131177189950932e+01
3.389534947033041135e+03,7.289347025518716805e+01,-3.412881997015452384e+01
3.424006163206564452e+03,7.357401743095080349e+01,-3.156697152971951326e+01
3.458827948046014626e+03,7.624592152420522950e+01,-3.424771149979165585e+01
3.494003866798079343e+03,7.633937397370239353e+01,-3.193111659896761267e+01
3.529537520967643104e+03,7.342540892537392949e+01,-3.386441589003089092e+01
3.565432548686519112e+03,7.337484591735358208e+01,-3.571991730534220011e+01
3.601692625085929194e+03,7.332376825133846410e+01,-3.418861244691424162e+01
3.638321462672811322e+03,7.327217528765352483e+01,-3.441553951320991445e+01
3.675322811709895632e+03,7.322006645444292872e+01,-3.514548847798232600e+01
3.712700460599706730e+03,7.273500931352461407e+01,-3.609861671841566988e+01
3.750458236272413160e+03,7.322958878586382525e+01,-3.673355768067110461e+01
3.788600004577677282e+03,7.306064001857886581e+01,-3.482463637624628916e+01
3.827129670680434174e+03,7.498477457673187985e+01,-3.512647038753039652e+01
3.866051179460752792e+03,7.584549387892558059e+01,-3.572952659350944771e+01
3.905368515917705281e+03,7.230999293889989588e+01,-3.542653744077154698e+01
3.945085705577399040e+03,7.146223543047779003e+01,-3.533276884500044446e+01
3.985206814905121519e+03,7.278457752934569669e+01,-3.359935397323613415e+01
4.025735951721675519e+03,7.226503898137016790e+01,-3.586388476498806455e+01
4.066677265623987296e+03,7.267052613385499171e+01,-3.598904191272561093e+01
4.108034948409935168e+03,7.261272343514367833e+01,-3.614653976012571235e+01
4.149813234507559173e+03,7.255440293089880299e+01,-3.611954261659429477e+01
4.192016401408573984e+03,7.155603894690324296e+01,-3.669255840467607754e+01
4.234648770106355187e+03,7.243620940560504096e+01,-3.468544872274054569e+01
4.277714705538310227e+03,7.223781781804444790e+01,-3.668924046836645658e+01
4.321218617032823204e+03,7.451456316391976031e+01,-3.682001213259893291e+01
4.365164958760669833e+03,7.225504250197964495e+01,-3.694875773282871734e+01
4.409558230191089024e+03,7.247403020171769583e+01,-3.597811212149899518e+01
4.454402976552451037e+03,7.137530564685965828e+01,-3.720004484898660735e+01
4.499703789297617732e+03,7.206923364402169341e+01,-3.732252455218692688e+01
4.545465306574043097e+03,7.200626820517963722e+01,-3.744285459297530849e+01
4.591692213698666819e+03,7.194278917603507750e+01,-3.756100525875473295e+01
4.638389243637613617e+03,7.187879720271274664e+01,-3.767694733775716998e+01
4.685561177490762020e+03,7.181429296511623761e+01,-3.779065213153877778e+01
4.733212844981297167e+03,7.174927717511221203e+01,-3.790209146717431565e+01
4.781349124950165788e+03,7.085672626665738960e+01,-3.801123770914897904e+01
4.829974945855636179e+03,7.161771393422085907e+01,-3.811806377094660547e+01
4.879095286277861305e+03,7.155116805045499007e+01,-3.822254312633335616e+01
4.928715175428649673e+03,7.148411374486762782e+01,-3.832464982033700807e+01
4.978839693666368476e+03,7.141655186174872938e+01,-3.750721609390724609e+01
5.029473973016082709e+03,7.134848326640421590e+01,-3.883928575137521477e+01
5.080623197695038471e+03,7.127990884334995769e+01,-3.861648317531376762e+01
5.132292604643405866e+03,7.121082949451870547e+01,-3.922218179499573409e+01
5.184487484060511633e+03,7.025480478393377837e+01,-3.879872625359661953e+01
5.237213179946435957e+03,6.920225358592175269e+01,-3.888608522260234679e+01
5.290475090649195408e+03,7.100057113675414655e+01,-3.977912408390229615e+01
5.344278669417445599e+03,7.166437887978258914e+01,-3.735216614391190149e+01
5.398629424958796335e+03,7.062817864785330357e+01,-3.913285373076848828e+01
5.453532922003839303e+03,7.028108790995071331e+01,-3.920993921145301897e+01
5.508994781875905574e+03,7.151373143524692466e+01,-4.126190667845204985e+01
5.565020683066599304e+03,7.044573501377848856e+01,-3.935623895024192365e+01
5.621616361817170400e+03,6.994850151735701616e+01,-3.990852893835648274e+01
5.678787612705868014e+03,7.161021345738215871e+01,-3.949192482098594326e+01
5.736540289241173014e+03,7.041790171607510729e+01,-4.043643868751451009e+01
5.794880304461157721e+03,7.034283759144319959e+01,-3.961686387393901043e+01
5.853813631538851951e+03,6.890232182504968250e+01,-3.831026905185284193e+01
5.913346304393848186e+03,7.019123313987415713e+01,-3.973093447492697550e+01
5.973484418310069486e+03,7.011469474908795974e+01,-4.002249528769541342e+01
6.034234130559828372e+03,7.003766686093543115e+01,-3.937975664165589507e+01
6.095601661034253993e+03,7.071547288451594682e+01,-4.157656769997953461e+01
6.157593292880128502e+03,6.930269336333259389e+01,-3.992604152244691562e+01
6.220215373143182660e+03,6.980365565339747036e+01,-3.996786763532573161e+01
6.283474313417917983e+03,6.901444773335177274e+01,-4.000689296809342466e+01
6.347376590504109117e+03,6.964521781542106282e+01,-4.004310857772702548e+01
6.411928747069880046e+03,6.956527249757758113e+01,-4.007650628096886436e+01
6.477137392321632433e+03,6.948484408650612920e+01,-4.066576147525346130e+01
6.543009202680681483e+03,6.940393344281008581e+01,-4.013481905867661226e+01
6.609550922466867632e+03,6.932254141109973489e+01,-4.060460239109277580e+01
6.676769364589060388e+03,6.924066881934174944e+01,-3.992314383897297603e+01
6.744671411242685281e+03,6.915831647827396012e+01,-4.020099347628026720e+01
6.813264014614378539e+03,6.907548518088572109e+01,-4.021735493764771263e+01
6.882554197593798563e+03,6.899217570196503857e+01,-4.045435219914693903e+01
6.952549054492660616e+03,6.637129852220802206e+01,-4.024151511613095522e+01
7.023255751771066571e+03,6.882412520542307277e+01,-4.024931068181840743e+01
7.094681528771295234e+03,6.873938564323515266e+01,-4.050244291993705303e+01
7.166833698458954132e+03,6.865417080994832588e+01,-4.025633083400300904e+01
7.239719648171773770e+03,6.856848138490894939e+01,-4.025555703672934982e+01
7.313346840375908869e+03,6.972980978668978480e+01,-4.211668448615000671e+01
7.387722813430035785e+03,6.839568137948410254e+01,-4.024545173591246083e+01
7.462855182357153353e+03,7.080435073024297310e+01,-4.023612665711799963e+01
7.538751639624229938e+03,6.906610379118839660e+01,-3.807398504042431142e+01
7.615419955929823118e+03,6.697538923558623480e+01,-4.020895374801037292e+01
7.692867980999694737e+03,6.682870609232070080e+01,-4.019111718392357346e+01
7.771103644390498630e+03,6.795541983069595915e+01,-4.017045607434225474e+01
7.850134956301626517e+03,6.786595580997122568e+01,-4.042881803196695500e+01
7.929970008395395780e+03,6.679945634264765886e+01,-4.012069167147512871e+01
8.010616974625447256e+03,6.863452970473561265e+01,-4.009160613731047818e+01
8.092084112073712276e+03,6.782057933745036848e+01,-4.005973157747595792e+01
8.174379761795747072e+03,6.460328648483611858e+01,-4.002507890755067876e+01
8.257512349674796496e+03,6.741160526246088125e+01,-3.998765985839385451e+01
8.341490387284458848e+03,6.603028369248362139e+01,-3.845511982868189449e+01
8.426322472760130040e+03,6.798575579075425424e+01,-3.817985176023812954e+01
8.512017291679339905e+03,6.713338696047129872e+01,-3.985893397702113816e+01
8.598583617951057022e+03,6.556409566346900419e+01,-3.708046710717048455e+01
8.686030314713982079e+03,6.694557839671404054e+01,-3.850732549606230037e+01
8.774366335243987123e+03,6.545490127204735131e+01,-4.095175810137036621e+01
8.863600723870858928e+03,6.675590965985682601e+01,-3.956518631662171259e+01
8.953742616904237366e+03,6.666037864399093849e+01,-3.893202754554799583e+01
9.044801243569112557e+03,6.793063666308094639e+01,-3.968367509513526414e+01
9.136785926950688008e+03,6.686410539627749472e+01,-3.854780288427382118e+01
9.229706084949004435e+03,6.483630323554066877e+01,-3.862505252153442825e+01
9.323571231243155125e+03,6.606809225245052630e+01,-4.063153477566238081e+01
9.418390976265340214e+03,6.522457364938343005e+01,-3.925629233543838126e+01
9.514175028184848998e+03,6.607746172248104699e+01,-3.939305203454602378e+01
9.610933193902059429e+03,6.597869034727847293e+01,-3.910487827982258580e+01
9.708675380052498440e+03,6.560959898364417597e+01,-3.902545665561596877e+01
9.807411594021114070e+03,6.669432867735666548e+01,-3.894359233598914471e+01
9.907151944966950396e+03,6.567960861493023117e+01,-3.978268900747028880e+01
1.000790664485810521e+04,6.557899339375265413e+01,-3.915126914931836666e+01
1.010968600951736516e+04,6.547791815252668357e+01,-3.868360977957810576e+01
1.021250045967832193e+04,6.596950276010537095e+01,-3.727491086139980325e+01
1.031636052205233318e+04,6.676328552974193542e+01,-3.783061248147965472e+01
1.042127683040637021e+04,6.455086331610954176e+01,-3.843661183496261913e+01
1.052726012665164308e+04,6.625455309279773530e+01,-3.643122804192785935e+01
1.063432126194347074e+04,6.463058226706668563e+01,-3.764821918712799942e+01
1.074247119779235800e+04,6.607860770926431826e+01,-3.708424514148929063e+01
1.085172100718615911e+04,6.233723981285442051e+01,-3.853708052390604166e+01
1.096208187572387760e+04,6.513760903770636901e+01,-3.788993541708788371e+01
1.107356510276086919e+04,6.451829550100252675e+01,-3.890441992404362992e+01
1.118618210256581915e+04,6.446301615032605525e+01,-3.767008172024649326e+01
1.129994440548926650e+04,6.372344021862877383e+01,-3.685300631762582668e+01
1.141486365914420639e+04,6.257410112871531993e+01,-3.619085403668307066e+01
1.153095162959871595e+04,6.288607784088037533e+01,-3.732535664981107004e+01
1.164822020258047814e+04,6.401481724026375275e+01,-3.830350622729027066e+01
1.176668138469381302e+04,6.390689998489402512e+01,-3.577569089153582382e+01
1.188634730464894892e+04,6.484112694559738088e+01,-3.696360284911771998e+01
1.200723021450380838e+04,6.410140866377243185e+01,-3.683941726066743172e+01
1.212934249091853053e+04,6.358044475857747102e+01,-3.770517793524493300e+01
1.225269663642252817e+04,6.223747723930949860e+01,-3.585084622587347525e+01
1.237730528069462525e+04,6.214048878616747373e+01,-3.627305578066474823e+01
1.250318118185623644e+04,6.324995254398223210e+01,-3.632576569292237423e+01
1.263033722777746334e+04,6.195868198541220551e+01,-3.451557482276314914e+01
1.275878643739672589e+04,6.135430822184981281e+01,-3.585855107016831766e+01
1.288854196205365588e+04,6.291544955964043595e+01,-3.712520485896365585e+01
1.301961708683572033e+04,6.280306233187673115e+01,-3.620664227710662431e+01
1.315202523193825255e+04,6.302802930505325918e+01,-3.564889251967971973e+01
1.328577995403857312e+04,6.257696565263266564e+01,-3.550932502237930777e+01
1.342089494768407531e+04,6.040390836928582985e+01,-3.536846822705712157e+01
1.355738404669418196e+04,6.234911457950420299e+01,-3.522636965922361441e+01
1.369526122557684721e+04,6.223453454859050282e+01,-3.508307737226105161e+01
1.383454060095927707e+04,5.970564008943792089e+01,-3.493863993428283976e+01
1.397523643303339122e+04,6.200407275555606645e+01,-3.479310641473292520e+01
1.411736312701568204e+04,6.229465251031565032e+01,-3.640153936498128218e+01
1.426093523462218582e+04,6.177188560983650234e+01,-3.449894983318773711e+01
1.440596745555846246e+04,6.289149016418922145e+01,-3.280233003077790244e+01
1.455247463902445088e+04,6.153798620259512830e+01,-3.420100968495120242e+01
1.470047178523492948e+04,6.142039872625571206e+01,-3.394647069204660994e+01
1.484997404695529622e+04,6.130238848246692385e+01,-3.389969515020773372e+01
1.500099673105295733e+04,5.959829974245564443e+01,-3.374790218903079619e+01
1.515355530006465415e+04,6.106510725785201998e+01,-3.359542206227236250e+01
1.530766537377938403e+04,6.094584019335499647e+01,-3.366583644132589370e+01
1.546334273083789412e+04,6.082615819348855268e+01,-3.328861242507096563e+01
1.562060331034796218e+04,6.070606334862881681e+01,-3.169743859605286573e+01
1.577946321351646293e+04,6.058555780119323231e+01,-3.297969391906771364e+01
1.593993870529785272e+04,6.026442626621093979e+01,-3.282457891866252453e+01
1.610204621605945249e+04,6.034332342470386834e+01,-3.266909939692069997e+01
1.626580234326379468e+04,5.909347916622441943e+01,-3.207314871806239864e+01
1.643122385316777218e+04,5.782153613293331773e+01,-3.251354521616559623e+01
1.659832768253935865e+04,5.997694806796174305e+01,-3.220102328577750228e+01
1.676713094039179123e+04,5.985402612137086464e+01,-3.041913973930455839e+01
1.693765090973507904e+04,5.905968680324845366e+01,-3.114050210955475606e+01
1.710990504934567070e+04,5.730707018261901453e+01,-3.173165501143619593e+01
1.728391099555391338e+04,5.948290457166906720e+01,-2.934574002381538804e+01
1.745968656404989815e+04,5.935842072456078711e+01,-2.950098711506533888e+01
1.763724975170730977e+04,5.995354138388774601e+01,-3.126250500585992853e+01
1.781661873842616478e+04,5.910830389829375520e+01,-3.269733233579399467e+01
1.799781188899426706e+04,5.898267634262697356e+01,-3.045906101598835747e+01
1.818084775496728253e+04,5.885667303437378450e+01,-3.116179876121812242e+01
1.836574507656829883e+04,5.873029677277018124e+01,-3.227730338887946715e+01
1.855252278460651723e+04,5.860355038874283196e+01,-2.965409936720196526e+01
1.874120000241544403e+04,5.847643674296628546e+01,-3.033069662058188598e+01
