Frequency (Hz), Gain (dB), Phase (deg)
4.458325195211598839e+03,-1.600501155516258223e+01,-5.391558326116526700e+01
4.510849921115395773e+03,-1.352722007414207539e+01,-6.687604853659132687e+01
4.563993454914641006e+03,-1.469858980008957872e+01,-5.626586115320304060e+01
4.617763086951264995e+03,-1.464229407772677227e+01,-5.787498646703659944e+01
4.672166193456660949e+03,-1.349432622180567876e+01,-5.551637249107990613e+01
4.727210237563598639e+03,-1.091519956885055898e+01,-5.513622534568781930e+01
4.782902770330012572e+03,-1.370958555959815328e+01,-5.400369909583606898e+01
4.839251431774879165e+03,-1.385051757705545583e+01,-5.436504040603929866e+01
4.896263951926292975e+03,-1.269800529653274879e+01,-4.507365723839240701e+01
4.953948151881869308e+03,-1.373953338924357759e+01,-5.357922712521298081e+01
5.012311944881690579e+03,-1.488068378821652615e+01,-5.595871218944801484e+01
5.071363337393839174e+03,-1.201691762803174868e+01,-5.277866411021306448e+01
5.131110430212745086e+03,-1.396515256286881090e+01,-5.879211951338287179e+01
5.191561419570482030e+03,-1.446668563075148484e+01,-5.196323923490854924e+01
5.252724598261112078e+03,-1.457533323645533585e+01,-5.154992126330726876e+01
5.314608356778351663e+03,-1.370562778240144475e+01,-5.443547533163667396e+01
5.377221184466567138e+03,-1.379405651072524819e+01,-5.071201533098896164e+01
5.440571670685370918e+03,-1.490204685155377717e+01,-5.153110452261810792e+01
5.504668505987931894e+03,-1.501121353398889369e+01,-5.139460653296637105e+01
5.569520483313143814e+03,-1.501882270584771817e+01,-4.942682575586780303e+01
5.635136499191887197e+03,-1.193467994329505011e+01,-4.899083806225304016e+01
5.701525554967458447e+03,-1.269830844010712312e+01,-4.855104192378929895e+01
5.768696758030399906e+03,-1.700517656212598183e+01,-4.810743084868611419e+01
5.836659323067849982e+03,-1.429124745184710044e+01,-4.679346945585867701e+01
5.905422573327667124e+03,-1.737744734336823527e+01,-4.064634376241729541e+01
5.974995941897388548e+03,-1.577920549898020397e+01,-4.675365595765982363e+01
6.045388972998289319e+03,-1.438852126393771869e+01,-4.346770715610423963e+01
6.116611323294683643e+03,-1.684861991209714560e+01,-4.474115415552505937e+01
6.188672763218621185e+03,-1.316943231833432293e+01,-4.536539707104802233e+01
6.261583178310251242e+03,-1.383962434604571889e+01,-4.489497390014544465e+01
6.335352570573923003e+03,-1.569537389695001650e+01,-5.277466985859766169e+01
6.409991059850280180e+03,-1.644306867193434130e+01,-3.704632740225220289e+01
6.485508885204532817e+03,-1.380822248667477581e+01,-4.346070720075896077e+01
6.561916406331049075e+03,-1.666555314944002930e+01,-4.107512766957741945e+01
6.639224104974555303e+03,-1.677702483603526673e+01,-3.762869013413015296e+01
6.717442586368019874e+03,-1.688865082877511270e+01,-4.199202008030636790e+01
6.796582580687507289e+03,-1.763781597403324142e+01,-4.149483573944232973e+01
6.876654944524174425e+03,-1.693432576832728031e+01,-3.870292092836819364e+01
6.957670662373572668e+03,-1.724162278403168003e+01,-4.048908427435115698e+01
7.039640848142562390e+03,-1.733671581692884445e+01,-4.373348618221028516e+01
7.122576746673919843e+03,-1.935480872992206969e+01,-3.946822735928903114e+01
7.206489735288930206e+03,-1.702322919209981222e+01,-3.895216579859206263e+01
7.291391325348165083e+03,-1.767442502365743451e+01,-3.843236810666724779e+01
7.377293163830599951e+03,-1.778731434201795025e+01,-3.790885033265088566e+01
7.464207034931419912e+03,-1.690125738537719968e+01,-2.914726871035525235e+01
7.552144861678569214e+03,-1.740308422274765121e+01,-3.088229319929694228e+01
7.641118707568384707e+03,-1.812694701055859525e+01,-3.631615657203027325e+01
7.731140778220499669e+03,-1.824048038328221821e+01,-4.421532519625571922e+01
7.822223423052204453e+03,-1.401347254079657390e+01,-3.523611368888926876e+01
7.914379136972615925e+03,-1.927076391509351794e+01,-2.289959824283429768e+01
8.007620562096716640e+03,-1.858204949837075048e+01,-3.664606507797967083e+01
8.101960489479653006e+03,-1.869622866556575502e+01,-3.358914658047733326e+01
8.197411860871397948e+03,-1.881056890406220816e+01,-3.339913571461232777e+01
8.293987770492178242e+03,-1.892506987856248202e+01,-3.247354663070021985e+01
8.391701466828741104e+03,-1.903973115786465087e+01,-3.191054912008947042e+01
8.490566354451804727e+03,-1.921781764767082024e+01,-3.288955287321267917e+01
8.590595995854941066e+03,-2.058376136364733355e+01,-2.466932502204798539e+01
8.691804113315103677e+03,-2.091263476014533040e+01,-3.020116113173779127e+01
8.794204590775048928e+03,-2.047564805311428060e+01,-3.348365176968854229e+01
8.897811475748017983e+03,-1.961542007406652033e+01,-2.904493066874990959e+01
9.002638981244763272e+03,-2.040791033288809331e+01,-2.846193882275991527e+01
9.108701487723348691e+03,-1.984679139440193296e+01,-2.726258379808311005e+01
9.216013545061836339e+03,-2.227120976378079220e+01,-2.728640795299666877e+01
9.324589874554347261e+03,-2.007877532026050460e+01,-2.669395569689026004e+01
9.434445370930503486e+03,-2.019499350451691555e+01,-2.609843914618027583e+01
9.545595104398735202e+03,-2.031136040905218465e+01,-1.462748969608055205e+01
9.658054322713645888e+03,-1.852238133687581012e+01,-2.790472241262827069e+01
9.771838453267740988e+03,-1.822906390784054764e+01,-3.298760985240964771e+01
9.886963105207742046e+03,-1.873667238086803621e+01,-2.338917808621136629e+01
1.000344407157596288e+04,-2.077827927280105769e+01,-2.594157239943874060e+01
1.012129733147674960e+04,-1.973970964512480109e+01,-2.718564526299402928e+01
1.024053905226859024e+04,-2.453735267529544473e+01,-2.184814912791442865e+01
1.036118559178195756e+04,-2.084238370240074545e+01,-2.122992873163920891e+01
1.048325350056331627e+04,-2.124742005903280528e+01,-2.060911755257753342e+01
1.060675952414555832e+04,-2.397504115498443866e+01,-1.998577503116815990e+01
1.073172060534519733e+04,-2.148277565490504060e+01,-1.708823124990768250e+01
1.085815388658661686e+04,-2.168691130914270815e+01,-1.873174021328636840e+01
1.098607671225369813e+04,-2.171862545849144510e+01,-2.312828303081266768e+01
1.111550663106919455e+04,-2.365821551171449855e+01,-1.340298745937769453e+01
1.124646139850199870e+04,-2.089436830082441432e+01,-2.258958370567665241e+01
1.137895897920302195e+04,-2.207327342247701552e+01,-2.091776157620150656e+01
1.151301754946952497e+04,-2.219170920946727676e+01,-2.261352088544789751e+01
1.164865549973860288e+04,-2.288266702651834095e+01,-1.491545845125228098e+01
1.178589143711003453e+04,-2.251203891192280437e+01,-1.522125963126990733e+01
1.192474418789882839e+04,-2.254762692445626726e+01,-8.362663964611355638e+00
1.206523280021786559e+04,-2.396989144581215569e+01,-1.298019441717459088e+01
1.220737654659096370e+04,-2.278537675024308840e+01,-1.259843065792568950e+01
1.235119492659670868e+04,-2.534816033813507019e+01,-1.168127913916960026e+01
1.249670766954346436e+04,-2.302346710122347417e+01,-1.102942246180995944e+01
1.264393473717588859e+04,-2.314262973718479088e+01,-7.781326991380199232e+00
1.279289632641324533e+04,-2.326186505413117800e+01,-9.721291185808098589e+00
1.294361287212019306e+04,-2.338116873456404221e+01,-1.191993195475647127e+01
1.309610504990999834e+04,-2.350053638700514114e+01,-8.407785692120926413e+00
1.325039377898087332e+04,-2.449662961135501149e+01,-7.749214032414101894e+00
1.340650022498572071e+04,-2.373944569538168992e+01,1.992934323849242517e+00
1.356444580293568288e+04,-2.245840063068077797e+01,-6.428831618091095379e+00
1.372425218013789345e+04,-2.397855651782700193e+01,-5.767182158605058007e+00
1.388594127916785510e+04,-2.253243684208833741e+01,-3.818068697290176949e+00
1.404953528087683662e+04,-2.421783146989243107e+01,-4.441373919186010433e+00
1.421505662743458925e+04,-2.407935216542421131e+01,-7.614760876167711245e+00
1.438252802540817902e+04,-2.445723238545640754e+01,-1.491826478409499224e-01
1.455197244887679699e+04,-2.457696797511087539e+01,-4.587052076055569749e+00
1.472341314258343482e+04,-2.469672046431338686e+01,-1.782027478482400173e+00
1.489687362512364052e+04,-2.481648492900322367e+01,-1.178666005302435060e+01
1.507237769217184723e+04,-2.493625642477870485e+01,-4.498193252120731289e-01
1.524994941974571702e+04,-2.379278914365129083e+01,2.166257931304240714e-01
1.542961316750894002e+04,-2.364623378011713584e+01,8.831864511486622327e-01
1.561139358211297258e+04,-2.529556345362709635e+01,7.947337333514640889e+00
1.579531560057799470e+04,-2.455483860518968342e+01,2.216318815147094057e+00
1.598140445371401074e+04,-2.449552132088491518e+01,6.286747969223426047e+00
1.616968566958193878e+04,-2.565475485454216198e+01,3.548907266110531644e+00
1.636018507699563088e+04,-2.577443645996261523e+01,4.214788541597405569e+00
1.655292880906513528e+04,-2.408207859116694394e+01,8.807248028894026248e+00
1.674794330678168262e+04,-2.601369678811829544e+01,5.545309125818171481e+00
1.694525532264491630e+04,-2.613326573213288384e+01,6.209782900583658005e+00
1.714489192433286007e+04,-2.605897750372442090e+01,1.060462780900764379e+01
1.734688049841512111e+04,-2.637225697910342603e+01,7.536746409120577361e+00
1.755124875410983441e+04,-2.649166971949789229e+01,8.199073077562673006e+00
1.775802472708490313e+04,-2.661102090543259635e+01,8.860521833923034052e+00
1.796723678330385883e+04,-2.650452846076496982e+01,9.521012499531343209e+00
1.817891362291736368e+04,-2.684952002678546990e+01,1.018046552142025973e+01
1.839308428420023120e+04,-2.756544854126114075e+01,1.083880201780474195e+01
1.860977814753498023e+04,-2.418042095936193192e+01,2.504856933017832432e+01
1.882902493944230810e+04,-2.720669243332702081e+01,1.215181352947574211e+01
1.905085473665902464e+04,-2.732557851358380674e+01,1.891319575299705491e+01
1.927529797026405504e+04,-2.744437172637707079e+01,1.714149403645544112e+01
1.950238542985303502e+04,-2.783624087391223512e+01,1.411102827596399933e+01
1.973214826776212431e+04,-2.783181276320554076e+01,1.881464140141380881e+01
1.996461800334140935e+04,-2.780015268501594505e+01,1.540942980989222022e+01
2.019982652727900495e+04,-2.923786584526457943e+01,1.605608915958259786e+01
2.043780610597576015e+04,-2.836182617524934457e+01,2.819813557400351911e+01
2.067858938597164160e+04,-2.815495209366416418e+01,1.170183774586470804e+01
2.092220939842427470e+04,-2.870287823321983467e+01,1.100331568475312238e+01
2.116869956364020982e+04,-2.839088940035333053e+01,2.185407715041615262e+01
2.141809369565961606e+04,-2.850866868134045262e+01,1.926116636553936701e+01
2.167042600689492610e+04,-2.741909668298109537e+01,1.989606450122885306e+01
2.192573111282425089e+04,-2.894212874357269882e+01,2.052877121917527958e+01
2.218404403673975321e+04,-2.886120899292437514e+01,2.130343136724436803e+01
2.244540021455271199e+04,-2.897844606211036478e+01,2.178736036244447760e+01
2.270983549965408747e+04,-2.931878253763644082e+01,2.241312096934590059e+01
2.297738616783342513e+04,-2.670753015815068565e+01,3.243299384348817682e+01
2.324808892225506133e+04,-2.835283921135743412e+01,2.759741639082493947e+01
2.352198089849314783e+04,-2.673125094893387654e+01,2.455433455989643576e+01
2.379909966962600811e+04,-2.956242839513201659e+01,2.713697042207368426e+01
2.407948325139048757e+04,-2.967876586129550276e+01,3.592761161543421622e+01
2.436317010739703619e+04,-3.141612085097019502e+01,2.452079410901191636e+01
2.465019915440621844e+04,-2.991096269430579468e+01,2.692908063083130088e+01
2.494060976766745807e+04,-2.820569102278115636e+01,1.878049376077051491e+01
2.523444178632039984e+04,-2.987798535465329408e+01,2.792876623269476610e+01
2.553173551886045243e+04,-3.034918797246635691e+01,2.852775004614143484e+01
2.583253174866816335e+04,-3.037338606144051312e+01,2.783233577393444236e+01
2.613687173960405198e+04,-3.436640604113694764e+01,2.284305756821812494e+01
2.644479724166923916e+04,-3.060358327825763070e+01,3.267715199543319926e+01
2.675635049673282629e+04,-3.071842266535961130e+01,2.173618880788640695e+01
2.707157424432670450e+04,-3.205976162991056100e+01,3.245016770599396239e+01
2.739051172750867772e+04,-3.094757611338107495e+01,3.205826551465279550e+01
2.771320669879466004e+04,-3.171128804331062767e+01,4.149769068182447995e+01
2.803970342616054768e+04,-3.247662001957968414e+01,2.409952393665697201e+01
2.837004669911530436e+04,-3.184258034555821126e+01,3.378101488136098141e+01
2.870428183484506371e+04,-3.140374918222049416e+01,3.434873322879555246e+01
2.904245468442990023e+04,-3.139252324358183444e+01,3.491313402665503673e+01
2.938461163913376731e+04,-3.163075351261471724e+01,3.547418833185069076e+01
2.973079963676855914e+04,-3.100842231350748790e+01,3.603186862561768322e+01
3.008106616813311484e+04,-3.185702849720478014e+01,3.658614880362066657e+01
3.043545928352814371e+04,-3.453649757153770139e+01,3.713700416501914958e+01
3.079402759934782807e+04,-2.860653941128479616e+01,3.016202769860575472e+01
3.115682030474915518e+04,-3.045132666206690075e+01,3.848902459050253810e+01
3.152388716839982953e+04,-3.156931527587364528e+01,4.184003323370491501e+01
3.189527854530539844e+04,-3.241949995117003880e+01,4.018291539709320404e+01
3.227104538371744275e+04,-3.253144055976183324e+01,3.983914085473248434e+01
3.265123923212250884e+04,-3.281829186519885866e+01,4.036900557261163414e+01
3.303591224631369550e+04,-3.275476706422034567e+01,4.089531074691830526e+01
3.342511719654549961e+04,-3.286615297654232393e+01,3.297472032147442178e+01
3.381890747477295372e+04,-3.420149882270812469e+01,4.193718781587878652e+01
3.421733710197604523e+04,-3.308837057424516104e+01,4.761842793957256248e+01
3.462046073557043565e+04,-3.319920259388044315e+01,4.296467529594735879e+01
3.502833367690553860e+04,-2.962794325054057509e+01,4.823183214330963153e+01
3.544101187885057880e+04,-3.342031425992304605e+01,4.397769603075946065e+01
3.585855195347080007e+04,-3.353059450863075597e+01,4.447876245799764661e+01
3.628101117979328410e+04,-3.685400130203920810e+01,5.144594489161674034e+01
3.670844751166471542e+04,-3.521184655534582930e+01,4.546997967527161677e+01
3.714091958570161660e+04,-3.386033732486448855e+01,4.596012270716384762e+01
3.757848672933420312e+04,-3.300765873652591864e+01,4.558431210161455738e+01
3.802120896894510224e+04,-3.494596338672053548e+01,4.510419082220278142e+01
3.846914703810383799e+04,-3.369645112834125200e+01,4.740866549859769208e+01
3.892236238589852292e+04,-3.521046074240670976e+01,3.322840684939406231e+01
3.938091718536522239e+04,-3.440627611603869696e+01,4.533330570314271313e+01
3.984487434201747237e+04,-3.075145584194907400e+01,5.568220188761851830e+01
4.031429750247545599e+04,-3.473167868346224196e+01,4.261264215268823108e+01
4.078925106319730548e+04,-3.473168293972139509e+01,4.974999706335238869e+01
4.126980017931307520e+04,-3.527019490166208726e+01,6.259352864157006024e+01
4.175601077356292080e+04,-3.673296280142233172e+01,5.066109238899925060e+01
4.224794954534049612e+04,-3.505549160346399162e+01,5.725008877204291480e+01
4.274568397984289913e+04,-3.524805312531057666e+01,5.155772535528644340e+01
4.324928235732846224e+04,-3.527048428261032598e+01,4.885772422107382340e+01
4.375881376248357265e+04,-3.852503241992201310e+01,5.208598906342113111e+01
4.427434809389994189e+04,-3.548477884892886891e+01,6.571504679760624867e+01
4.479595607366308104e+04,-3.559166584670448685e+01,5.330788418624656089e+01
4.532370925705463014e+04,-3.569838010908070203e+01,5.233136513680751278e+01
4.585768004236815614e+04,-3.580492221385033247e+01,5.416157966985973360e+01
4.639794168084091507e+04,-3.591129272568846886e+01,5.337830446428129250e+01
4.694456828670268442e+04,-3.868788536707988612e+01,5.500115047892006714e+01
4.749763484734287340e+04,-3.511979889358768503e+01,5.541567344117787997e+01
4.805721723359743191e+04,-3.622938011232325550e+01,5.582670757203668899e+01
4.862339221015701332e+04,-3.633506956844989588e+01,5.743056530370050439e+01
4.919623744609780988e+04,-3.644058999048699832e+01,6.001196473743203086e+01
4.977583152553582477e+04,-3.654594182435401706e+01,5.703903240502602756e+01
5.036225395840833517e+04,-3.467356349787328895e+01,5.876527360631904884e+01
5.095558519137983967e+04,-3.650120380102454476e+01,6.041549742569822001e+01
5.155590661887898023e+04,-3.686098985514578885e+01,5.899123770038632131e+01
5.216330059426391381e+04,-3.696567124931883086e+01,5.945888759200830975e+01
5.277785044111981551e+04,-3.822304534603733828e+01,5.899132062204404292e+01
5.339964046468938614e+04,-3.717453395533684102e+01,5.937170090323787974e+01
5.402875596343801590e+04,-3.727871576196034198e+01,5.974876596600708467e+01
5.466528324075532873e+04,-3.738273147350001580e+01,6.012216379190102344e+01
5.530930961679390748e+04,-3.868736466279761999e+01,6.795126292227064368e+01
5.596092344044927449e+04,-4.120633738729559070e+01,6.086026630214666255e+01
5.662021410147819552e+04,-3.769378337980180049e+01,6.122426838241595703e+01
5.728727204276264820e+04,-3.591216269577669351e+01,6.158505555184964919e+01
5.796218877271634847e+04,-3.829902629325223984e+01,6.175497139102049005e+01
5.864505687783817848e+04,-3.800334352521322501e+01,6.073495456075704624e+01
5.933597003541345475e+04,-3.810619857066572536e+01,5.445416812205021984e+01
6.003502302636470995e+04,-3.460921705974345741e+01,6.299647422380462558e+01
6.074231174825398193e+04,-3.831141031919887041e+01,6.334150274214554344e+01
6.145793322843823262e+04,-3.841376657330356181e+01,6.368344386639579824e+01
6.218198563737986842e+04,-3.851595603084363972e+01,6.996003178108838938e+01
6.291456830211350461e+04,-3.861797833999384011e+01,5.691329588144904505e+01
6.365578171987259702e+04,-3.831121889865882935e+01,7.137844513000864310e+01
6.440572757187533716e+04,-3.928397650974050492e+01,7.252524067142817898e+01
6.516450873727366707e+04,-3.645424186579502646e+01,6.534760244123238238e+01
6.593222930726641789e+04,-3.898107687267047083e+01,7.415275116299707747e+01
6.670899459937878419e+04,-3.898763501115764996e+01,6.070974353809766200e+01
6.749491117191000376e+04,-3.922657558929148536e+01,7.801223452850575768e+01
6.829008683855121490e+04,-3.932741344218098334e+01,6.238491006780043335e+01
6.909463068317576835e+04,-4.027220141661565123e+01,6.116571130370891751e+01
6.990865307480281626e+04,-3.952857243739840953e+01,6.724728996390227564e+01
7.073226568273955490e+04,-3.962889179300860576e+01,6.100946307483265230e+01
7.156558149189827964e+04,-3.972903642639022337e+01,7.647784871478508251e+01
7.240871481829740515e+04,-3.982900528830424491e+01,6.680138528739453818e+01
7.326178132474295853e+04,-3.992879726567862519e+01,5.094580788462404541e+01
7.412489803669546382e+04,-4.002841118081104810e+01,6.875249148185554304e+01
7.499818335832386219e+04,-3.834016373995876847e+01,6.834691260943360192e+01
7.588175708874835982e+04,-3.850941957927548032e+01,6.933540472268107635e+01
7.677574043847495341e+04,-3.906717453150695718e+01,6.346846994666237407e+01
7.768025604602247768e+04,-4.169676423600817117e+01,7.316294792475385123e+01
7.859542799474821368e+04,-4.167192624997519346e+01,7.018976342115108480e+01
7.952138182986764878e+04,-4.062228107606357241e+01,7.046929528157188827e+01
8.045824457567880745e+04,-4.072060999063187126e+01,7.074623343414324950e+01
8.140614475298690377e+04,-4.081874900406531026e+01,7.102059759049359400e+01
8.236521239673523814e+04,-4.091669632363651488e+01,7.339149149720486776e+01
8.333557907384373539e+04,-4.101445008484805044e+01,7.993102597831151002e+01
8.431737790125748143e+04,-3.981173925079947651e+01,7.182843905731438383e+01
8.531074356420800905e+04,-4.280407314079161551e+01,7.209269872372610166e+01
8.631581233468976279e+04,-4.130653028362173984e+01,7.235447861157111049e+01
8.733272209015428962e+04,-4.140348970919838223e+01,7.261379659691796462e+01
8.836161233242387243e+04,-4.150024515577183593e+01,6.312635428948836136e+01
8.940262420682974334e+04,-4.120519123446261744e+01,7.213585947227709028e+01
9.045590052157400351e+04,-4.430010991145958599e+01,7.337715248224630216e+01
9.152158576732048823e+04,-4.117105397436348824e+01,8.049937647003147845e+01
9.259982613701635273e+04,-4.188517985363813523e+01,6.901049363728907338e+01
9.369076954594712879e+04,-4.301487348417755641e+01,7.297586614682819572e+01
