Frequency (Hz), Gain (dB), Phase (deg)
4.086726356807521370e+03,-1.313618067669358780e+01,-1.127066178572250976e+02
4.129009382925083628e+03,-1.011053352898574609e+01,-1.129141696324726212e+02
4.171729887391225930e+03,-1.089337445745134048e+01,-1.150880500560462139e+02
4.214892396544829353e+03,-1.019735309044230398e+01,-1.133334826041931365e+02
4.258501483556234234e+03,-1.524561394022148342e+01,-1.135452362932700794e+02
4.302561768911758918e+03,-1.125046424487631214e+01,-1.130348388757658995e+02
4.347077920903265294e+03,-1.130387769904214679e+01,-1.120777643528757466e+02
4.392054656122752021e+03,-1.068242949016486598e+01,-1.141888328983835947e+02
4.437496739962119136e+03,-1.262655690769154582e+01,-1.144061264662359747e+02
4.483408987118053119e+03,-8.450855304823392089e+00,-1.145146371279924580e+02
4.529796262102163382e+03,-1.076664664354065870e+01,-1.148448204399609693e+02
4.576663479756375636e+03,-1.188595404267223898e+01,-1.150662076247703141e+02
4.624015605773690368e+03,-1.129926421299153105e+01,-1.152889454048134326e+02
4.671857657224299146e+03,-1.543414300824774088e+01,-1.157192833312445828e+02
4.720194703087159724e+03,-1.220753143687602460e+01,-1.158508004288514996e+02
4.769031864787049926e+03,-1.112930641123631226e+01,-1.159651830424502208e+02
4.818374316737222216e+03,-1.242340195597681429e+01,-1.177333436151292290e+02
4.868227286887625269e+03,-1.478084206027336656e+01,-1.168143692487241196e+02
4.918596057278828084e+03,-1.488035427993106197e+01,-1.177486399577806822e+02
4.969485964601648448e+03,-1.274950855953061080e+01,-1.168852224481197908e+02
5.020902400762608522e+03,-1.385931115639015232e+01,-1.185906324352569214e+02
5.072850813455217576e+03,-1.117133121894226022e+01,-1.185759596110027303e+02
5.125336706737140958e+03,-8.834860729130575407e+00,-1.175886857850352811e+02
5.178365641613406297e+03,-1.318876418513936244e+01,-1.178256708138636384e+02
5.231943236625584177e+03,-1.329939619178529142e+01,-1.180638834056970836e+02
5.286075168447092437e+03,-1.249819726016087706e+01,-1.183033101846042001e+02
5.340767172484634102e+03,-1.461234326056847266e+01,-1.177526514036223375e+02
5.396025043485909919e+03,-1.363331286973571821e+01,-1.181291023300126142e+02
5.451854636153565480e+03,-1.374530379441422667e+01,-1.190287344264894500e+02
5.508261865765516632e+03,-1.556527267503577328e+01,-1.186074583982138364e+02
5.565252708801671361e+03,-1.397033476119659667e+01,-1.195181538675810344e+02
5.622833203577181848e+03,-1.408338175126807812e+01,-1.197645569399976608e+02
5.681009450882200326e+03,-1.419678767013832044e+01,-1.200120665670251725e+02
5.739787614628259689e+03,-1.505878094053775662e+01,-1.202606653574183468e+02
5.799173922501385277e+03,-1.442468990323544631e+01,-1.180644351893647155e+02
5.859174666621909637e+03,-1.453919294657957550e+01,-1.205792150932384743e+02
5.919796204211152144e+03,-1.457704758264202916e+01,-1.207809415621520230e+02
5.981044958264957131e+03,-1.476931946232970461e+01,-1.212655866747178095e+02
6.042927418234258766e+03,-1.488494945743339315e+01,-1.215193527745711890e+02
6.105450140712631764e+03,-1.500096156131860425e+01,-1.197425408219310015e+02
6.168619750130992543e+03,-1.511735893549045784e+01,-1.194990643608635992e+02
6.232442939459443551e+03,-1.523414469780405511e+01,-1.220793778784673407e+02
6.296926470916450853e+03,-1.563575468403529811e+01,-1.229285608930008493e+02
6.362077176685290397e+03,-1.501729306927686203e+01,-1.228023717223946818e+02
6.427901959637947584e+03,-1.243638525181945553e+01,-1.240405002899673264e+02
6.494407794066464703e+03,-1.604088932072857787e+01,-1.210508895896492589e+02
6.561601726421928106e+03,-1.611940562137704092e+01,-1.226253838916685766e+02
6.629490876061022391e+03,-1.594318400303153282e+01,-1.238444789414986786e+02
6.698082436000365306e+03,-1.606277168310437276e+01,-1.241069889990150443e+02
6.767383673678591549e+03,-1.618277087604688802e+01,-1.243702427227148775e+02
6.837401931726396469e+03,-1.630318421472946966e+01,-1.246342145117748714e+02
6.908144628744488728e+03,-1.642401426812678267e+01,-1.261301229605024332e+02
6.979619260089582895e+03,-1.733795036160028502e+01,-1.213546329983754219e+02
7.051833398668597511e+03,-1.666693446395639455e+01,-1.270804256515472730e+02
7.124794695740987663e+03,-1.678902940766957386e+01,-1.247159669897416450e+02
7.198510881729434914e+03,-1.691155066496179415e+01,-1.279382148841211233e+02
7.272989767038871832e+03,-1.703450045705262994e+01,-1.288217618239539206e+02
7.348239242884056694e+03,-2.146435410500770047e+01,-1.264998830114309101e+02
7.424267282125636484e+03,-1.728169415396683917e+01,-1.271737061980164896e+02
7.501081940114908321e+03,-1.960963957772974098e+01,-1.277357137330484846e+02
7.578691355547268358e+03,-1.653615673520788931e+01,-1.267323510683442578e+02
7.657103751324576479e+03,-1.765574983996572200e+01,-1.275775559508645216e+02
7.736327435426364900e+03,-1.240256873100274859e+01,-1.278479980002221197e+02
7.816370801790068072e+03,-1.790731839399965963e+01,-1.281187890239622789e+02
7.897242331200424815e+03,-1.751151402472045149e+01,-1.292611078187250939e+02
7.978950592188008159e+03,-1.730126797374716219e+01,-1.286612944681142778e+02
8.061504241937088409e+03,-1.579026995411093992e+01,-1.289329464273862698e+02
8.144912027202890386e+03,-1.841578841147557455e+01,-1.292048224662734128e+02
8.229182785238303040e+03,-1.854402497293355623e+01,-1.294768907187286686e+02
8.314325444730247909e+03,-1.867271155020178242e+01,-1.300523940240529726e+02
8.400349026745683659e+03,-1.880184917810780121e+01,-1.300214752728365966e+02
8.487262645687373151e+03,-1.868713741651817983e+01,-1.302939267595237709e+02
8.575075510259628572e+03,-2.069434617102858454e+01,-1.309977929288606049e+02
8.663796924443968237e+03,-2.138259106005166643e+01,-1.316279880602177741e+02
8.753436288484903343e+03,-1.912196439128755543e+01,-1.311115253162454337e+02
8.844003099885889242e+03,-2.052773387775579295e+01,-1.326488779753217386e+02
8.935506954415654036e+03,-1.958619302009117291e+01,-1.316564640386627332e+02
9.027957547124866323e+03,-1.633301877037999361e+01,-1.304810023774746810e+02
9.121364673373358528e+03,-1.901328389192743273e+01,-1.322009904917886161e+02
9.215738229867936752e+03,-1.998450873828133467e+01,-1.347860013153984937e+02
9.311088215711011799e+03,-2.011819275276097585e+01,-1.341529055250246358e+02
9.407424733460007701e+03,-2.025233284824207658e+01,-1.330164207571201871e+02
9.504757990197711479e+03,-2.038692889207467829e+01,-1.332877338752279286e+02
9.603098298613806037e+03,-2.199301976450406926e+01,-1.303451458742845261e+02
9.702456078097480713e+03,-2.065748779838587268e+01,-1.347551807826538663e+02
9.802841855841410506e+03,-2.079344990010299909e+01,-1.340997111729429605e+02
9.904266267957094897e+03,-2.311607205777761109e+01,-1.343696041797260534e+02
1.000674006060185275e+04,-1.981584821870987412e+01,-1.346696405559578693e+02
1.011027409111731140e+04,-2.120406016343746103e+01,-1.348217331296599468e+02
1.021487932917989019e+04,-2.134183582185700345e+01,-1.351765156475979097e+02
1.032056685796290913e+04,-2.148006281462612321e+01,-1.380199556458581469e+02
1.042734787531104121e+04,-1.798814433295018489e+01,-1.357118170073286478e+02
1.053523369492661004e+04,-2.350670112623045327e+01,-1.359785764057831159e+02
1.064423574756836024e+04,-2.189744116945297492e+01,-1.362446977657236573e+02
1.075436558226263878e+04,-2.125707738531360036e+01,-1.375191372061972572e+02
1.086563486752691824e+04,-2.217792893348145356e+01,-1.360701096339537628e+02
1.097805539260616206e+04,-1.856835181163054216e+01,-1.383003806472603969e+02
1.109163906872199368e+04,-2.504558432081764607e+01,-1.373021519462789115e+02
1.120639793033458227e+04,-1.653399991545463976e+01,-1.358454972127850624e+02
1.132234413641779065e+04,-2.285577476513222450e+01,-1.378880515507941595e+02
1.143948997174751639e+04,-2.554261860174644738e+01,-1.380869613816641674e+02
1.155784784820313507e+04,-2.036186765167562029e+01,-1.376091534566987491e+02
1.167743030608274603e+04,-2.762368376721734364e+01,-1.386057517512638242e+02
1.179825001543168946e+04,-2.331749558646127696e+01,-1.372223904197541060e+02
1.192031977738504065e+04,-2.583854279851723135e+01,-1.384613474829905044e+02
1.204365252552398124e+04,-2.208716768455616020e+01,-1.400147454693797044e+02
1.216826132724601121e+04,-2.333593161178848163e+01,-1.396316319399830945e+02
1.229415938514953632e+04,-2.389763305182584929e+01,-1.416885058622630140e+02
1.242136003843278741e+04,-2.404372180285859883e+01,-1.398338066925016392e+02
1.254987676430700049e+04,-2.419022730184394732e+01,-1.403898687123239597e+02
1.267972317942441805e+04,-2.433714691869175795e+01,-1.398784356359285539e+02
1.281091304132110236e+04,-2.478700553327404066e+01,-1.414427695613018159e+02
1.294346024987437886e+04,-2.289666333106953999e+01,-1.414637657411336420e+02
1.307737884877578654e+04,-2.478036313923884393e+01,-1.392953579870162741e+02
1.321268302701884750e+04,-2.492891155779190626e+01,-1.424414484725792818e+02
1.334938712040249993e+04,-2.507785993330639940e+01,-1.418742883633906899e+02
1.348750561305010342e+04,-2.406282788726993260e+01,-1.407097031363504414e+02
1.362705313894386200e+04,-2.537694441191102612e+01,-1.423588059789099987e+02
1.376804448347556172e+04,-2.552707429892963376e+01,-1.421469178453274935e+02
1.391049458501291519e+04,-2.591229562311894696e+01,-1.433337103728386239e+02
1.405441853648243341e+04,-2.582849341545632171e+01,-1.462303289823079240e+02
1.419983158696849750e+04,-2.458957746446650461e+01,-1.433111856500990484e+02
1.434674914332914886e+04,-2.759975101387732366e+01,-1.430544941303274129e+02
1.449518677182828833e+04,-2.628347104269585088e+01,-1.437786641587667305e+02
1.464516019978518307e+04,-3.063414745021092145e+01,-1.452958474803085380e+02
1.479668531724061359e+04,-2.526224863315508173e+01,-1.465985645873492160e+02
1.494977817864054305e+04,-2.674178582022186390e+01,-1.444684806700932427e+02
1.510445500453721979e+04,-2.649946807126166348e+01,-1.446952926161112600e+02
1.526073218330757300e+04,-2.704913622076183799e+01,-1.449205063719580266e+02
1.541862627288984004e+04,-2.720334280535256255e+01,-1.448906978377245025e+02
1.557815400253770531e+04,-2.594645447766304969e+01,-1.453660591119680987e+02
1.573933227459289628e+04,-2.751280043321257551e+01,-1.435461527371266186e+02
1.590217816627612410e+04,-2.766804405994605531e+01,-1.458049830482569860e+02
1.606670893149626136e+04,-2.782362590380490985e+01,-1.460219125088863166e+02
1.623294200267853375e+04,-2.797954218870295051e+01,-1.462371296311400783e+02
1.640089499261162564e+04,-2.783087316692085622e+01,-1.464506169817070997e+02
1.657058569631359569e+04,-2.829236285981785670e+01,-1.466623575787313314e+02
1.674203209291740495e+04,-2.844925958172673575e+01,-1.464221592461608736e+02
1.691525234757594444e+04,-2.860647541953858308e+01,-1.470805328297358869e+02
1.709026481338644226e+04,-2.876400649546707200e+01,-1.475771922902534925e+02
1.726708803333529067e+04,-2.892184891649691281e+01,-1.474915284747186206e+02
1.744574074226248922e+04,-2.911891338905556381e+01,-1.476942962198550333e+02
1.762624186884671872e+04,-2.945332217223243632e+01,-1.494183881099604321e+02
1.780861053761102448e+04,-3.248621369889710309e+01,-1.495068796064523156e+02
1.799286607094886494e+04,-2.955625374856295196e+01,-1.482915085160845763e+02
1.817902799117147515e+04,-2.844620593203457659e+01,-1.484868374046195356e+02
1.836711602257643244e+04,-2.826091071104013253e+01,-1.481382633546371608e+02
1.855715009353724236e+04,-2.978865491997456161e+01,-1.487553823350559412e+02
1.874915033861492702e+04,-3.019532577861978950e+01,-1.490614216297251460e+02
1.894313710069143781e+04,-3.035579338533450766e+01,-1.494659421195361801e+02
1.913913093312476849e+04,-3.051653291002338619e+01,-1.498666542612959063e+02
1.933715260192694041e+04,-3.101458157175985875e+01,-1.496186584704481959e+02
1.953722308796392463e+04,-3.083881187105397714e+01,-1.498004986625196864e+02
1.973936358917875623e+04,-3.100034339207813616e+01,-1.497011575483645913e+02
1.994359552283760786e+04,-3.161461577465261641e+01,-1.501582612739497904e+02
2.014994052779875710e+04,-3.132417075624466918e+01,-1.503341651253198847e+02
2.035842046680542262e+04,-3.148645871212694658e+01,-1.497920773501368785e+02
2.056905742880225807e+04,-3.164899093715011702e+01,-1.506799742279929433e+02
2.078187373127551109e+04,-3.181176350631064054e+01,-1.508498630674893946e+02
2.099689192261772405e+04,-3.272641106845073722e+01,-1.513901788852889752e+02
2.121413478451692572e+04,-3.213801402358576809e+01,-1.511835708771133682e+02
2.143362533437009552e+04,-3.230148417082317280e+01,-1.513473754746584916e+02
2.165538682772226457e+04,-3.246517906206246096e+01,-1.525190007528623539e+02
2.187944276073018773e+04,-3.421931416740641652e+01,-1.516688525572285755e+02
2.210581687265195069e+04,-3.348801322590951202e+01,-1.518265125878370725e+02
2.233453314836233403e+04,-2.738960002961190554e+01,-1.519821124839043307e+02
2.256561582089375224e+04,-3.312212884689937198e+01,-1.521356467711433424e+02
2.279908937400416471e+04,-3.328688966430070195e+01,-1.522871102639775813e+02
2.303497854477086366e+04,-3.287670185968387671e+01,-1.524364980586014156e+02
2.327330832621162335e+04,-3.361701269638246004e+01,-1.525838055260408908e+02
2.351410396993265749e+04,-3.833311046966952063e+01,-1.527290283052216751e+02
2.375739098880429083e+04,-3.697099466231454556e+01,-1.510157474897743555e+02
2.400319515966377003e+04,-3.411364423780545962e+01,-1.530132036525292278e+02
2.425154252604676003e+04,-3.427955900267410527e+01,-1.546891573441945411e+02
2.450245940094639082e+04,-3.444565304995056465e+01,-1.521564397857983693e+02
2.475597236960132068e+04,-3.686779179127496064e+01,-1.534237371232065072e+02
2.501210829231265234e+04,-3.095058500263539969e+01,-1.561965995721219258e+02
2.527089430728949083e+04,-3.494497419308233077e+01,-1.536869032338396721e+02
2.553235783352472936e+04,-3.308712645031342703e+01,-1.528204958300744636e+02
2.579652657369976805e+04,-3.527868442467286059e+01,-1.559333776154609268e+02
2.606342851711985713e+04,-3.544577757180185529e+01,-1.540658165968757203e+02
2.633309194267977000e+04,-3.561302464716523275e+01,-1.559554939322997313e+02
2.660554542185971877e+04,-3.578042210549540414e+01,-1.540426496570266295e+02
2.688081782175271655e+04,-3.196705705705852552e+01,-1.544256786937329764e+02
2.715893830812328088e+04,-3.398985451511403255e+01,-1.545413917046235497e+02
2.743993634849729278e+04,-3.621785778899762676e+01,-1.546549821483636435e+02
2.772384171528431762e+04,-3.645144554287146832e+01,-1.551475949660968467e+02
2.801068448893221648e+04,-3.661954241642861518e+01,-1.548757915507353289e+02
2.830049506111385926e+04,-3.678776880843074082e+01,-1.541338365547986484e+02
2.859330413794765263e+04,-3.697615222182600547e+01,-1.550881008737682407e+02
2.888914274325050792e+04,-3.712459652597745219e+01,-1.575193682744712760e+02
2.918804222182507874e+04,-3.987938437844127293e+01,-1.552919064281664134e+02
2.949003424278098100e+04,-3.746190163972265452e+01,-1.553906197351302581e+02
2.979515080288986792e+04,-3.763072484636624893e+01,-1.576024995668474844e+02
3.010342422997572794e+04,-3.779965738987233692e+01,-1.555816674030957927e+02
3.041488718634028919e+04,-4.227260092216724985e+01,-1.556740021175317850e+02
3.072957267222329392e+04,-3.999905320440782219e+01,-1.546151246697139925e+02
3.104751402929913820e+04,-3.700725270996804284e+01,-1.561561165449895157e+02
3.136874494420969495e+04,-3.847641519412633215e+01,-1.559382542089561809e+02
3.169329945213304018e+04,-4.200515634272792909e+01,-1.560220893821031041e+02
3.202121194039008333e+04,-3.881536513494951635e+01,-1.561038012780062729e+02
3.235251715208752648e+04,-3.898497159527538258e+01,-1.561833907214564476e+02
3.268725018979917877e+04,-3.915466146438932071e+01,-1.560502532702612939e+02
3.302544651928535313e+04,-3.932443157276715340e+01,-1.563362059642612110e+02
3.336714197325014538e+04,-3.949427876545480842e+01,-1.581067281606597419e+02
3.371237275513820350e+04,-4.350453160796089946e+01,-1.564805433118311555e+02
3.406117544297076529e+04,-3.732243750210349020e+01,-1.565495356577322354e+02
3.441358699322078610e+04,-3.659930980456540084e+01,-1.575182676737020984e+02
3.476964474472874281e+04,-4.009308716638295067e+01,-1.582220749288692616e+02
3.512938642265903036e+04,-4.009537633023719394e+01,-1.568925155853896740e+02
3.549285014249649248e+04,-4.051480573783526040e+01,-1.568043598756831329e+02
3.586007441408545856e+04,-4.068510531100653793e+01,-1.568627867375637663e+02
3.623109814570940216e+04,-3.506524130317195898e+01,-1.566240950109138623e+02
3.660596064821362233e+04,-4.102585835493975708e+01,-1.548287018350048925e+02
3.698470163917053287e+04,-4.119630574547933577e+01,-1.564863371920896498e+02
3.736736124708731222e+04,-3.930126422081782778e+01,-1.559323900557561160e+02
3.775398001565820596e+04,-3.917368280590817164e+01,-1.571233240721119842e+02
3.814459890805969917e+04,-3.954915418815838990e+01,-1.596087230637548373e+02
3.853925931129098899e+04,-4.187849724943575325e+01,-1.564134477071920344e+02
3.893800304055884044e+04,-4.330111276880716531e+01,-1.527277865760116526e+02
3.934087234370836086e+04,-4.099447543027027052e+01,-1.571873568647223181e+02
3.974790990569868154e+04,-4.373983817165581200e+01,-1.573313585592785557e+02
4.015915885312618775e+04,-4.429505457879899666e+01,-1.591427903451909458e+02
4.057466275879329623e+04,-4.326802834119193619e+01,-1.573999235689461500e+02
4.099446564632534864e+04,-4.290266055972486470e+01,-1.551857747792798534e+02
4.141861199483529344e+04,-4.599964063449394303e+01,-1.552612231094828701e+02
4.184714674363572703e+04,-4.324418660376974799e+01,-1.569547845895535545e+02
4.228011529700102255e+04,-4.341496220405674933e+01,-1.586862611626613102e+02
4.271756352897742181e+04,-4.164414483840380399e+01,-1.575348542342440510e+02
4.315953778824384062e+04,-4.732319330019609538e+01,-1.575556031477433692e+02
4.360608490302243445e+04,-4.352432877958157320e+01,-1.602202332354988243e+02
4.405725218604053953e+04,-4.409807939978252023e+01,-1.599830289838488397e+02
4.451308743954291276e+04,-4.121257164157389496e+01,-1.605600543795297881e+02
4.497363896035723883e+04,-4.338906219053985325e+01,-1.576178811086328153e+02
4.543895554501065635e+04,-4.461034996252091389e+01,-1.576282825471907927e+02
4.590908649490012613e+04,-4.478107819147118107e+01,-1.576366214238411203e+02
4.638408162151630677e+04,-4.495178716102007854e+01,-1.573664735979103000e+02
4.686399125172056665e+04,-4.581784043185166411e+01,-1.576471210730025803e+02
4.734886623307798436e+04,-4.529313542302280382e+01,-1.592853990188520470e+02
4.783875793924407481e+04,-4.546376875411654339e+01,-1.588736241598994070e+02
4.833371827540838422e+04,-4.563437090190731737e+01,-1.593907750031362411e+02
4.883379968379372440e+04,-4.580493887114994322e+01,-1.576434770336523457e+02
4.933905514921295980e+04,-4.597546965972649957e+01,-1.575527618900496236e+02
4.984953820468220511e+04,-4.851293334704492111e+01,-1.557835691366614412e+02
5.036530293709354009e+04,-4.631640764861251114e+01,-1.576192618912941725e+02
5.088640399294497183e+04,-4.648680880519536629e+01,-1.557479635442163612e+02
5.141289658413062716e+04,-4.665716069254573029e+01,-1.575929291725823873e+02
5.194483649379092094e+04,-4.619015026592975204e+01,-1.559723972599088029e+02
5.248228008222217613e+04,-4.887499730851460100e+01,-1.575584713625975724e+02
5.302528429284898448e+04,-5.018402703186282565e+01,-1.581353852072652160e+02
5.357390665825672477e+04,-4.733801449441554610e+01,-1.575159120545574751e+02
5.412820530628762936e+04,-4.822210709845140997e+01,-1.574916019842034132e+02
5.468823896619987499e+04,-4.767806610191998118e+01,-1.571841555278784881e+02
5.525406697488931968e+04,-4.629484244387030856e+01,-1.574369368979265005e+02
5.582574928317729064e+04,-4.801783443078512903e+01,-1.566936462245378436e+02
5.640334646216170950e+04,-4.592874440971007743e+01,-1.573742339357594915e+02
5.698691970963521453e+04,-4.835729440827691406e+01,-1.569186003404004737e+02
5.757653085656896292e+04,-4.592117742020749915e+01,-1.571100442928551502e+02
5.817224237366426678e+04,-4.869642073562427242e+01,-1.587652614512477385e+02
