Frequency (Hz), Gain (dB), Phase (deg)
1.084253302330198721e+03,-8.111432646863761420e+00,-9.046621436564986141e+01
1.103788626424490531e+03,-1.986873624940542626e+01,-9.047461394251898525e+01
1.123675924440971585e+03,-7.942438817891279257e+00,-9.048316483786477704e+01
1.143921538001687395e+03,-9.793033907688165840e+00,-9.049186977697800671e+01
1.164531922987628832e+03,-8.692057379591977551e+00,-8.674660922467779756e+01
1.185513651597373837e+03,-8.887001927333542994e+00,-9.050975293377054243e+01
1.206873414442816056e+03,-1.823066892248664317e+01,-8.212455152748253795e+01
1.228618022682657966e+03,-1.333586831404911877e+01,-8.642650348366224478e+01
1.250754410194331967e+03,-1.043739172664563597e+01,-8.485209289764451057e+01
1.273289635785067730e+03,-9.507464742408302527e+00,-1.079768882056782076e+02
1.296230885442785848e+03,-9.270289934052351910e+00,-9.119319504100000984e+01
1.319585474627559279e+03,-9.817698954858087745e+00,-9.056739849903482309e+01
1.343360850604342431e+03,-9.972816822675170556e+00,-9.057762086032332149e+01
1.367564594817746865e+03,-8.797424754039173678e+00,-1.012852683096715083e+02
1.392204425309594399e+03,-1.028305417489460183e+01,-7.472344995739994999e+01
1.417288199180035917e+03,-7.548017057439008859e+00,-9.060940613538272714e+01
1.442823915092999869e+03,-1.059329381513151702e+01,-9.062038521026026672e+01
1.468819715826796482e+03,-1.074841454570504595e+01,-1.022786377932888229e+02
1.495283890870666255e+03,-2.153141382423208228e+01,-7.255840350312458042e+01
1.522224879068123755e+03,-1.105865793941524089e+01,-9.065452336447397386e+01
1.549651271307908473e+03,-1.121378064966525301e+01,-1.112959372443204984e+02
1.577571813263437434e+03,-1.136890406835262013e+01,-8.360746304050854860e+01
1.605995408181604944e+03,-6.242862235333087817e+00,-9.069053973347200781e+01
1.634931119721838286e+03,-5.548288258527234618e+00,-9.938852168113893981e+01
1.664388174846289985e+03,-1.183427883726599816e+01,-8.631804783904595979e+01
1.694375966762119560e+03,-8.338859683462125361e-01,-1.039712106157858926e+02
1.724904057916777219e+03,-1.130410515884943123e+01,-8.581409129029744065e+01
1.755982183047265835e+03,-1.229966096718443680e+01,-9.075502389767201805e+01
1.787620252284322532e+03,-1.245479012082689962e+01,-9.076862590699838051e+01
1.819828354312548527e+03,-1.260992021711244604e+01,-9.834847661323063051e+01
1.852616759587472416e+03,-1.276505129030276464e+01,-9.241777643399406372e+01
1.885995923610563523e+03,-1.292018337590440069e+01,-9.499569053317129885e+01
1.919976490263267351e+03,-1.307531651071390399e+01,-9.082552833437007678e+01
1.954569295201103841e+03,-2.513225804650468831e+01,-9.409089829819795625e+01
1.989785369308918234e+03,-7.923503147895559096e+00,-1.009513717216003670e+02
2.025635942218395030e+03,-1.737376657374522182e+00,-1.057571694343644708e+02
2.062132445888928942e+03,-1.369586032578317258e+01,-8.530265713866663191e+01
2.099286518253030408e+03,-1.385099930710636329e+01,-1.187325313397366813e+02
2.137110006927415270e+03,-1.400613958825231009e+01,-8.919514267501436677e+01
2.175614972990932529e+03,-1.383389571165701071e+01,-9.093542777872875149e+01
2.214813694830590521e+03,-1.431642424067860020e+01,-9.945325228261185657e+01
2.254718672056855212e+03,-6.859580726649474158e+00,-9.096943335365853045e+01
2.295342629489513911e+03,-1.232709329770985818e+01,-1.067973935886797392e+02
2.336698521215325854e+03,-1.478186220601534728e+01,-9.600816192697230633e+01
2.378799534718802988e+03,-1.493701134036747646e+01,-1.098982600827283278e+02
2.421659095087407422e+03,-1.509216214349727636e+01,-8.698315668115675692e+01
2.465290869292522530e+03,-1.524731467604236457e+01,-7.810708868019270312e+01
2.509708770547538279e+03,-2.242806538767026936e+01,-9.107904564706834094e+01
2.554926962744477350e+03,-1.555762518301804676e+01,-1.069441809927919280e+02
2.600959864970543094e+03,-1.326783146939923697e+01,-8.484824055036506252e+01
2.647822156106061357e+03,-1.586794339189144409e+01,-7.942822337661873178e+01
2.695528779505236344e+03,-1.833013713282696244e+01,-7.899271801891443090e+01
2.744094947761267122e+03,-2.147393496112633571e+01,-9.117979456709123554e+01
2.793536147557305412e+03,-1.633343640418873122e+01,-9.120104561176181335e+01
2.843868144604829013e+03,-6.860719291985654777e+00,-9.122267923078298679e+01
2.895106988670962892e+03,-1.902307245950577652e+01,-8.448234468404565689e+01
2.947269018696408239e+03,-2.148970581366397781e+01,-9.126712181796213486e+01
3.000370868005567445e+03,-1.695412639083029660e+01,-9.441618084904391139e+01
3.054429469610554861e+03,-1.710930529363177754e+01,-9.131317882320405488e+01
3.109462061610746332e+03,-1.726448694668958694e+01,-9.910932162451712202e+01
3.165486192689636937e+03,-1.741967144989797589e+01,-9.136090877820082312e+01
3.222519727710741336e+03,-6.582838308735226462e+00,-8.668355439333927848e+01
3.280580853414287049e+03,-1.616083224532577844e+01,-9.141037232391214218e+01
3.339688084216577408e+03,-1.393493757331629013e+01,-9.143577373863648461e+01
3.399860268113829079e+03,-1.991590450256483891e+01,-9.146163228512362764e+01
3.461116592692380891e+03,-1.573420122749065442e+01,-9.148795617033194105e+01
3.523476591247207125e+03,-1.786234878429861794e+01,-9.151475374747552394e+01
3.586960149010632904e+03,-2.240068827119481298e+01,-9.323093583170354748e+01
3.651587509493310790e+03,-1.866126332723221992e+01,-9.156980413702471822e+01
3.717379280939440378e+03,-9.115735729400791243e+00,-9.159807441026295294e+01
3.784356442898262230e+03,-1.897169798577895961e+01,-9.162685330240211101e+01
3.852540352913990773e+03,-1.912692157046811303e+01,-1.025735944003734801e+02
3.921952753336260685e+03,-1.928214952788472658e+01,-9.545586259719247835e+01
3.992615778253280041e+03,-1.943738201675743937e+01,-9.171633374103437575e+01
4.064551960549921660e+03,-1.959261920156689030e+01,-9.174723997963293698e+01
4.137784239092939060e+03,-1.974786125275343807e+01,-9.177870210455991185e+01
4.212335966045679925e+03,-1.990310834693231357e+01,-8.939484927553513671e+01
4.288230914314588517e+03,-1.508878829412979883e+01,-9.184333404104988574e+01
4.365493285129839933e+03,-2.021361840294757428e+01,-1.056204647204002072e+02
4.444147715762594089e+03,-2.036888175093484676e+01,-9.191031139000763517e+01
4.524219287381280083e+03,-2.581799472966859810e+01,-9.194470596566533516e+01
4.605733533049417929e+03,-2.067942610524872293e+01,-1.016821961183045033e+02
4.688716445867577022e+03,-2.662723944117469443e+01,-9.201536130484315379e+01
4.773194487261966060e+03,-2.600135491282828326e+01,-9.205164440106841539e+01
4.859194595422441125e+03,-2.300330428335765731e+01,-9.208857966587706301e+01
4.946744193892466683e+03,-2.130059162830424668e+01,-9.471966726180059482e+01
5.035871200313901682e+03,-2.145590039484390843e+01,-9.216445356627500018e+01
5.126604035329314684e+03,-2.161121662451341763e+01,-8.722076526077273684e+01
5.218971631644696572e+03,-2.176654058790747115e+01,-9.224307881163643685e+01
5.313003443255490311e+03,-2.192187256540350404e+01,-9.228345405427565140e+01
5.408729454838783568e+03,-2.207721284751292501e+01,-8.500544981241772291e+01
5.506180191314781950e+03,-2.223256173524531221e+01,-8.530665378227793383e+01
5.605386727580553270e+03,-2.238791954048534194e+01,-9.240898366934681007e+01
5.706380698419094188e+03,-1.775363763648476478e+01,-9.245233876482299706e+01
5.809194308586987972e+03,-2.269866320775763313e+01,-9.249647234800450235e+01
5.913860343083787484e+03,-2.285404975151665496e+01,-9.254139829942297979e+01
6.020412177606429395e+03,-2.300944657708832608e+01,-1.003716592843652506e+02
6.128883789192026597e+03,-3.234109047575808660e+01,-9.263368404354045538e+01
6.239309767052368443e+03,-3.189422338371490184e+01,-8.889321784497204249e+01
6.351725323603674951e+03,-2.347570253630590287e+01,-1.049517865705394399e+02
6.466166305695080155e+03,-2.115304593299635627e+01,-1.026195169897071651e+02
6.582669206039370692e+03,-2.411667831162536402e+01,-9.282840205427714864e+01
6.701271174849727686e+03,-2.394206527060971723e+01,-9.287928407544032439e+01
6.822010031686114417e+03,-2.409754528289971631e+01,-1.004905617765473238e+02
6.944924277515087851e+03,-2.917251663332451628e+01,-9.230713824851505933e+01
7.070053106986943931e+03,-2.440854679759459600e+01,-9.056988689507609536e+01
7.197436420933985573e+03,-2.456406930640773112e+01,-9.309210024475402179e+01
7.327114839094040690e+03,-2.471960701741116395e+01,-9.314770944418738452e+01
7.459129713063228337e+03,-2.487516048019189441e+01,-1.030750757881332618e+02
7.593523139482025726e+03,-2.720921882412853776e+01,-9.326193445101515067e+01
7.730337973458993474e+03,-2.518631695888484501e+01,-9.332058584693612602e+01
7.869617842236319120e+03,-2.534192117554992763e+01,-9.338028740321472299e+01
8.011407159101577236e+03,-3.088151047019201201e+01,-9.344105768041573867e+01
8.155751137550181738e+03,-1.823305619792314758e+01,-9.715728355972399299e+01
8.302695805702920552e+03,-2.580884539997883564e+01,-9.924868110352683459e+01
8.452288020983376555e+03,-2.596452626409548259e+01,-9.039596758520082176e+01
8.604575485059667699e+03,-2.707270678735207525e+01,-9.369520832178780267e+01
8.759606759055499424e+03,-2.299686130327166111e+01,-9.066943085394635204e+01
8.917431279035226908e+03,-2.643169743140467176e+01,-9.382920211127198229e+01
9.078099371767919365e+03,-3.070573836627026054e+01,-1.053457824598143446e+02
9.241662270775503202e+03,-2.674325991244387524e+01,-1.006119499276983476e+02
9.408172132669938946e+03,-2.689907818081231028e+01,-9.584947561170712049e+01
9.577682053784856180e+03,-2.705492232346600190e+01,-9.256843685710069281e+01
9.750246087106830601e+03,-2.721079327202345155e+01,-9.530632761853034651e+01
9.925919259511636483e+03,-2.510616097597360152e+01,-1.054659786523237841e+02
1.010475758931114251e+04,-2.723379649153119075e+01,-9.147177504773739543e+01
1.028681810411631886e+04,-2.892921618000303141e+01,-9.441522893863920274e+01
1.047215885902207629e+04,-3.063374359038845540e+01,-9.048991890834126650e+01
1.066083895511977062e+04,-2.799058509998343425e+01,-1.004010677568888070e+02
1.085291855834321359e+04,-2.814663839042630400e+01,-1.118245670697586718e+02
1.104845891865435078e+04,-2.438276950826580958e+01,-9.474081124719383240e+01
1.124752238957440568e+04,-2.845884917655664026e+01,-9.482586019228156715e+01
1.145017244806712552e+04,-3.261605773259730512e+01,-9.960983419555290652e+01
1.165647371478016976e+04,-2.877120733511040385e+01,-9.261676914325184384e+01
1.186649197465121688e+04,-2.892744501028451509e+01,-9.509018540916544282e+01
1.208029419788532869e+04,-2.170834091645497210e+01,-9.518144181584925434e+01
1.229794856131025517e+04,-2.924004463161178080e+01,-1.214001170681305979e+02
1.251952447011662844e+04,-2.820312152539150929e+01,-9.536884038839311017e+01
1.274509257998959583e+04,-2.955281997672504701e+01,-9.546503862449475264e+01
1.297472481963946484e+04,-1.497702179029305647e+01,-9.556294092458452383e+01
1.320849441373816626e+04,-2.986578383287302074e+01,-7.845754710067561177e+01
1.344647590626899182e+04,-3.002234069654882376e+01,-7.910315262632093436e+01
1.368874518429702766e+04,-3.631047389866171926e+01,-9.586716557375163461e+01
1.393537950216784338e+04,-3.033561330938262302e+01,-8.838049520403757242e+01
1.418645750614234566e+04,-2.900983489361527745e+01,-9.607904790409969564e+01
1.444205925947503601e+04,-3.064911053327811885e+01,-9.618780151940545409e+01
1.470226626794480762e+04,-2.968410387291254082e+01,-9.629847234743654383e+01
1.496716150584504430e+04,-3.096284863277760735e+01,-9.641109264256267863e+01
1.523682944244243481e+04,-3.111981340567396614e+01,-9.652569511761942067e+01
1.551135606891233510e+04,-3.127684502148478884e+01,-7.899268194088426753e+01
1.579082892575947153e+04,-3.136188652906914243e+01,-9.676097976175792326e+01
1.607533713073267063e+04,-3.235042383277384204e+01,-9.221518031491669376e+01
1.636497140724252677e+04,-3.508491410815435074e+01,-1.048755748751252383e+02
1.665982411329122988e+04,-4.469549780987743759e+01,-9.463328948399357898e+01
1.695998927092330268e+04,-3.206309156831066787e+01,-9.725682582340640181e+01
1.726556259620730270e+04,-3.222057693992267957e+01,-8.589975682039988669e+01
1.757664152975753314e+04,-3.237814754664354666e+01,-1.025648593192419185e+02
1.789332526780570333e+04,-3.253580638721159346e+01,-9.765194183328861754e+01
1.821571479383244514e+04,-3.269355656215431338e+01,-9.778826705212743775e+01
1.854391291076867856e+04,-3.285140127697370360e+01,-8.173201748964385160e+01
1.887802427377738059e+04,-3.277232018898401833e+01,-9.641747574278456057e+01
1.921815542362541964e+04,-3.316738769279511700e+01,-7.246177287155923352e+01
1.956441482065758828e+04,-3.799505642667926253e+01,-9.835767830738167561e+01
1.991691287938180176e+04,-3.348379350427521217e+01,-1.148825758380557147e+02
2.027576200367804267e+04,-3.364216290819616972e+01,-9.865739672887330869e+01
2.064107662264145256e+04,-3.491998482330713927e+01,-1.018210740506842598e+02
2.101297322707121930e+04,-3.226038022589335696e+01,-9.896755069370944113e+01
2.139157040661713836e+04,-3.028996520161555139e+01,-9.912664349952846976e+01
2.177698888759476176e+04,-3.427684321579026516e+01,-1.000612127747528177e+02
2.216935157148299186e+04,-3.443583516485722384e+01,-9.945306935601713860e+01
2.256878357411416800e+04,-3.916071214427618230e+01,-9.962048703871374755e+01
2.297541226557097252e+04,-4.399392229325537329e+01,-9.979076495013083559e+01
2.338936731080191385e+04,-3.691628987099182524e+01,-9.996394634482356878e+01
2.381078071096862186e+04,-3.507322836539543687e+01,-1.001400748295821757e+02
2.423978684553811036e+04,-3.475598664658215853e+01,-1.003191943488073719e+02
2.467652251513340161e+04,-3.539285045543702779e+01,-1.083902833551591414e+02
2.512112698515641387e+04,-4.425697124742278987e+01,-1.050477653629997263e+02
2.557374203019635388e+04,-3.571314699921175873e+01,-1.008749432803610802e+02
2.603451197923871587e+04,-3.435766216633794556e+01,-9.134829920826079785e+01
2.650358376168855466e+04,-3.603416457153292640e+01,-9.421432499256782478e+01
2.698110695422305798e+04,-3.976528638555858919e+01,-1.164138647903484838e+02
2.746723382848825349e+04,-4.592299060450099546e+01,-1.074021677001552604e+02
2.796211939965503552e+04,-3.651715206252050905e+01,-1.050339622639704515e+02
2.846592147585037674e+04,-4.322395690274045421e+01,-1.057997488666377279e+02
2.897880070847823299e+04,-4.846578861089788148e+01,-1.022847699650665874e+02
2.950092064344856772e+04,-3.571845856038115130e+01,-1.024997692340077435e+02
3.003244777332789090e+04,-3.716414781592983729e+01,-1.092137018065773759e+02
3.057355159043038293e+04,-4.457874315975777080e+01,-8.895100748510296285e+01
3.112440464086519569e+04,-4.638357380721190282e+01,-1.031661779779804675e+02
3.168518257955761510e+04,-3.765191366269874607e+01,-1.033956057008225571e+02
3.225606422626157291e+04,-3.781502495479251991e+01,-1.036287562424445809e+02
3.283723162258123193e+04,-3.797841186213581466e+01,-1.038656756643262753e+02
3.342887009002036211e+04,-4.162810396006843661e+01,-1.041064098406994418e+02
3.403116828907684248e+04,-4.234728978196105942e+01,-1.019350081697247390e+02
3.464431827940266521e+04,-2.948590940701936347e+01,-1.072336289992071556e+02
3.526851558104742435e+04,-5.036354724039283326e+01,-1.048519558151346445e+02
3.590395923680537817e+04,-3.355277649780884275e+01,-1.005843147509872892e+02
3.655085187568583933e+04,-4.225329476438272991e+01,-1.175149675701247389e+02
3.720939977752698906e+04,-3.913062001022662173e+01,-1.056334576243035599e+02
3.787981293877433200e+04,-3.159445961253800661e+01,-1.121585552517299220e+02
3.856230513944345876e+04,-4.248195403111623136e+01,-1.061750176607167333e+02
3.925709401129010803e+04,-4.119080598583762765e+01,-1.064520926322225307e+02
3.996440110720806842e+04,-4.275754674883146578e+01,-9.741122207676545486e+01
4.068445197187753365e+04,-3.996406408727854398e+01,-1.070190373326175006e+02
4.141747621368632826e+04,-4.013194238187145402e+01,-1.081444906243859947e+02
4.216370757794689416e+04,-5.505840393586992576e+01,-1.076033046124637167e+02
4.292338402143296116e+04,-3.905333017622363201e+01,-1.245577740620894645e+02
4.369674778825778776e+04,-4.063817843188616052e+01,-1.082051957213228945e+02
4.448404548712168616e+04,-3.738391811613737303e+01,-1.115903283127467347e+02
4.528552816994914610e+04,-4.097796825717698255e+01,-1.088249932676865939e+02
4.610145141194423195e+04,-3.788513212181619849e+01,-1.230555657563473488e+02
4.693207539308780542e+04,-3.863482027631272331e+01,-1.094629584321278912e+02
4.777766498110318207e+04,-4.149137788292506457e+01,-1.097888289096789123e+02
4.863848981591664779e+04,-3.376082982993901282e+01,-1.101193280244546173e+02
4.951482439563957450e+04,-4.266249390086339588e+01,-1.184034469364341930e+02
5.040694816410026397e+04,-4.314116599126130325e+01,-1.107943113957957024e+02
5.131514559995181480e+04,-3.967941647985104225e+01,-1.111388403730267811e+02
5.223970630738652108e+04,-4.235797734352802024e+01,-1.150621104879899832e+02
5.318092510848418897e+04,-4.253307457466601704e+01,-1.058803393093936762e+02
5.413910213722438493e+04,-4.270880209906069069e+01,-1.122008001678161691e+02
5.511454293519259954e+04,-4.288517665772872078e+01,-1.125642931339281176e+02
5.610755854901060957e+04,-4.306221523843231580e+01,-1.114820741334328034e+02
5.711846562952295790e+04,-4.323993506657271269e+01,-1.133056002131717577e+02
5.814758653276873520e+04,-4.341835359514212200e+01,-1.183817209529191672e+02
5.919524942277538503e+04,-4.409659990648571437e+01,-1.140660347698985362e+02
6.026178837620177364e+04,-4.377735763639937261e+01,-1.144534262705898442e+02
6.134754348886843945e+04,-4.702322432812290742e+01,-1.206125780034859645e+02
6.245286098420655617e+04,-4.413937109431181227e+01,-1.121393419241616272e+02
6.357809332366088347e+04,-4.774228451305982190e+01,-1.156442306110880480e+02
6.472359931908254657e+04,-4.450454053216047612e+01,-1.160506709844672031e+02
6.588974424714490306e+04,-4.468835519686128066e+01,-1.240119935727595930e+02
6.707689996582397725e+04,-3.573894687284886373e+01,-1.168777060503299481e+02
6.828544503297444317e+04,-4.438089767823300491e+01,-1.172982534298681401e+02
6.951576482704396767e+04,-3.637762526294281429e+01,-1.177234495761609452e+02
7.076825166996188636e+04,-4.129593575587851717e+01,-1.181532613211041820e+02
7.204330495224194601e+04,-4.562048182540759456e+01,-1.250007866180543914e+02
7.334133126033921144e+04,-4.580965070039424347e+01,-1.204016068851569798e+02
7.466274450630140200e+04,-4.804035856905979074e+01,-1.194699987649744912e+02
7.600796605975691637e+04,-4.582913964253054218e+01,-1.289744011345642605e+02
7.737742488227944705e+04,-5.564553308756687500e+01,-1.203701126398090793e+02
7.877155766417500854e+04,-4.657610431746743984e+01,-1.061576887754863066e+02
8.019080896373269206e+04,-4.677025638341403635e+01,-1.209533636738684805e+02
8.163563134898457793e+04,-4.696546113190096605e+01,-1.321238623504178520e+02
8.310648554201969819e+04,-6.203796887373430735e+01,-1.297255652244515147e+02
8.460384056589797547e+04,-4.741485126973560682e+01,-1.226950321951349849e+02
8.612817389421230473e+04,-4.856337559923809977e+01,-1.166936228169217031e+02
8.767997160334241926e+04,-4.775716968757308223e+01,-1.236533676613473602e+02
8.925972852745640557e+04,-6.178190598114078114e+01,-1.268958729150043041e+02
9.086794841630055453e+04,-4.815980427009414200e+01,-1.246269211682730571e+02
9.250514409583486849e+04,-5.218054872806816746e+01,-1.400977825390029921e+02
9.417183763176191133e+04,-4.856713909960960507e+01,-1.256149372660626824e+02
9.586856049600201368e+04,-4.877260911216266948e+01,-1.261141144709105362e+02
9.759585373616802099e+04,-4.897930128472756905e+01,-1.292575074083306959e+02
9.935426814809322241e+04,-5.749699401230296303e+01,-1.271222632365705181e+02
1.011443644514689076e+05,-4.809321995679380279e+01,-1.271716025441094757e+02
1.029667134686443023e+05,-4.386532991355510092e+01,-1.174837918251287761e+02
1.048218963066500582e+05,-4.981857731435296444e+01,-1.286572251582115598e+02
1.067105045425003045e+05,-5.003158958450291038e+01,-1.291744515332264882e+02
1.086331404118334030e+05,-5.457287985275208086e+01,-1.331979557230186799e+02
